***BUSMASTER Ver 3.2.2***
***PROTOCOL CAN***
***NOTE: PLEASE DO NOT EDIT THIS DOCUMENT***
***[START LOGGING SESSION]***
***START DATE AND TIME 4:3:2025 19:33:21:714***
***HEX***
***SYSTEM MODE***
***START CHANNEL BAUD RATE***
***CHANNEL 1 - PCAN-USB Driver Id 16 - 500000 bps***
***END CHANNEL BAUD RATE***
***START DATABASE FILES***
***C:\Users\panda\Documents\Spartan Racing\BMS-SR16\SR16_CustomBMS\SR16-CustomBMS\SR-16 Custom BMS.dbf***
***END DATABASE FILES***
***<Time><Tx/Rx><Channel><CAN ID><Type><DLC><DataBytes>***
19:33:21:7445 Rx 1 0x600 s 8 00 00 00 A7 00 00 00 00 
19:33:21:7447 Rx 1 0x622 s 8 D4 97 B3 91 13 00 13 00 
19:33:21:7449 Rx 1 0x630 s 8 CB 94 29 95 F2 94 21 95 
19:33:21:7451 Rx 1 0x630 s 8 CB 94 29 95 F2 94 21 95 
19:33:21:7454 Rx 1 0x630 s 8 CB 94 29 95 F2 94 21 95 
19:33:21:7456 Rx 1 0x630 s 8 CB 94 29 95 F2 94 21 95 
19:33:21:7458 Rx 1 0x631 s 8 FB 94 12 95 ED 94 1E 95 
19:33:21:7460 Rx 1 0x631 s 8 FB 94 12 95 ED 94 1E 95 
19:33:21:7463 Rx 1 0x631 s 8 FB 94 12 95 ED 94 1E 95 
19:33:21:7465 Rx 1 0x631 s 8 FB 94 12 95 ED 94 1E 95 
19:33:21:7467 Rx 1 0x632 s 8 23 95 0E 95 08 95 E1 94 
19:33:21:7470 Rx 1 0x632 s 8 23 95 0E 95 08 95 E1 94 
19:33:21:7472 Rx 1 0x632 s 8 23 95 0E 95 08 95 E1 94 
19:33:21:7474 Rx 1 0x632 s 8 23 95 0E 95 08 95 E1 94 
19:33:21:7476 Rx 1 0x633 s 8 67 94 C6 94 C2 94 C5 94 
19:33:21:7479 Rx 1 0x633 s 8 67 94 C6 94 C2 94 C5 94 
19:33:21:7481 Rx 1 0x633 s 8 67 94 C6 94 C2 94 C5 94 
19:33:21:7483 Rx 1 0x633 s 8 67 94 C6 94 C2 94 C5 94 
19:33:21:7486 Rx 1 0x634 s 8 C4 94 AF 94 B3 94 AB 94 
19:33:21:7488 Rx 1 0x634 s 8 C4 94 AF 94 B3 94 AB 94 
19:33:21:7490 Rx 1 0x634 s 8 C4 94 AF 94 B3 94 AB 94 
19:33:21:7492 Rx 1 0x634 s 8 C4 94 AF 94 B3 94 AB 94 
19:33:21:7495 Rx 1 0x635 s 8 BD 94 C0 94 B9 94 77 94 
19:33:21:7497 Rx 1 0x635 s 8 BD 94 C0 94 B9 94 77 94 
19:33:21:7499 Rx 1 0x635 s 8 BD 94 C0 94 B9 94 77 94 
19:33:21:7501 Rx 1 0x635 s 8 BD 94 C0 94 B9 94 77 94 
19:33:21:7504 Rx 1 0x636 s 8 19 95 36 95 48 95 45 95 
19:33:21:7506 Rx 1 0x636 s 8 19 95 36 95 48 95 45 95 
19:33:21:7508 Rx 1 0x636 s 8 19 95 36 95 48 95 45 95 
19:33:21:7510 Rx 1 0x636 s 8 19 95 36 95 48 95 45 95 
19:33:21:7512 Rx 1 0x637 s 8 40 95 33 95 35 95 3E 95 
19:33:21:7515 Rx 1 0x637 s 8 40 95 33 95 35 95 3E 95 
19:33:21:7517 Rx 1 0x637 s 8 40 95 33 95 35 95 3E 95 
19:33:21:7519 Rx 1 0x637 s 8 40 95 33 95 35 95 3E 95 
19:33:21:7521 Rx 1 0x638 s 8 4A 95 4F 95 46 95 2D 95 
19:33:21:7524 Rx 1 0x638 s 8 4A 95 4F 95 46 95 2D 95 
19:33:21:7526 Rx 1 0x638 s 8 4A 95 4F 95 46 95 2D 95 
19:33:21:7528 Rx 1 0x638 s 8 4A 95 4F 95 46 95 2D 95 
19:33:21:7530 Rx 1 0x639 s 8 61 95 4D 95 48 95 3A 95 
19:33:21:7533 Rx 1 0x639 s 8 61 95 4D 95 48 95 3A 95 
19:33:21:7535 Rx 1 0x639 s 8 61 95 4D 95 48 95 3A 95 
19:33:21:7537 Rx 1 0x639 s 8 61 95 4D 95 48 95 3A 95 
19:33:21:7539 Rx 1 0x63A s 8 36 95 30 95 2D 95 0D 95 
19:33:21:7541 Rx 1 0x63A s 8 36 95 30 95 2D 95 0D 95 
19:33:21:7544 Rx 1 0x63A s 8 36 95 30 95 2D 95 0D 95 
19:33:21:7546 Rx 1 0x63A s 8 36 95 30 95 2D 95 0D 95 
19:33:21:7548 Rx 1 0x63B s 8 43 95 4F 95 21 95 01 95 
19:33:21:7551 Rx 1 0x63B s 8 43 95 4F 95 21 95 01 95 
19:33:21:7553 Rx 1 0x63B s 8 43 95 4F 95 21 95 01 95 
19:33:21:7555 Rx 1 0x63B s 8 43 95 4F 95 21 95 01 95 
19:33:21:7557 Rx 1 0x63C s 8 F6 94 40 95 0D 95 14 95 
19:33:21:7560 Rx 1 0x63C s 8 F6 94 40 95 0D 95 14 95 
19:33:21:7562 Rx 1 0x63C s 8 F6 94 40 95 0D 95 14 95 
19:33:21:7564 Rx 1 0x63C s 8 F6 94 40 95 0D 95 14 95 
19:33:21:7567 Rx 1 0x63D s 8 CB 94 0D 95 21 95 34 95 
19:33:21:7569 Rx 1 0x63D s 8 CB 94 0D 95 21 95 34 95 
19:33:21:7571 Rx 1 0x63D s 8 CB 94 0D 95 21 95 34 95 
19:33:21:7573 Rx 1 0x63D s 8 CB 94 0D 95 21 95 34 95 
19:33:21:7576 Rx 1 0x63E s 8 2A 95 B3 91 0D 95 FE 94 
19:33:21:7578 Rx 1 0x63E s 8 2A 95 B3 91 0D 95 FE 94 
19:33:21:7580 Rx 1 0x63E s 8 2A 95 B3 91 0D 95 FE 94 
19:33:21:7582 Rx 1 0x63E s 8 2A 95 B3 91 0D 95 FE 94 
19:33:21:7585 Rx 1 0x63F s 8 20 95 5A 95 31 95 5A 95 
19:33:21:7587 Rx 1 0x63F s 8 20 95 5A 95 31 95 5A 95 
19:33:21:7589 Rx 1 0x63F s 8 20 95 5A 95 31 95 5A 95 
19:33:21:7591 Rx 1 0x63F s 8 20 95 5A 95 31 95 5A 95 
19:33:21:7594 Rx 1 0x640 s 8 5A 95 43 95 48 95 39 95 
19:33:21:7596 Rx 1 0x640 s 8 5A 95 43 95 48 95 39 95 
19:33:21:7598 Rx 1 0x640 s 8 5A 95 43 95 48 95 39 95 
19:33:21:7600 Rx 1 0x640 s 8 5A 95 43 95 48 95 39 95 
19:33:21:7603 Rx 1 0x641 s 8 18 95 5A 95 55 95 23 95 
19:33:21:7605 Rx 1 0x641 s 8 18 95 5A 95 55 95 23 95 
19:33:21:7607 Rx 1 0x641 s 8 18 95 5A 95 55 95 23 95 
19:33:21:7610 Rx 1 0x641 s 8 18 95 5A 95 55 95 23 95 
19:33:21:7612 Rx 1 0x642 s 8 74 96 6E 96 7E 95 AD 95 
19:33:21:7614 Rx 1 0x642 s 8 74 96 6E 96 7E 95 AD 95 
19:33:21:7617 Rx 1 0x642 s 8 74 96 6E 96 7E 95 AD 95 
19:33:21:7619 Rx 1 0x642 s 8 74 96 6E 96 7E 95 AD 95 
19:33:21:7621 Rx 1 0x643 s 8 BD 97 D4 97 D3 97 B6 96 
19:33:21:7623 Rx 1 0x643 s 8 BD 97 D4 97 D3 97 B6 96 
19:33:21:7626 Rx 1 0x643 s 8 BD 97 D4 97 D3 97 B6 96 
19:33:21:7628 Rx 1 0x643 s 8 BD 97 D4 97 D3 97 B6 96 
19:33:21:7630 Rx 1 0x644 s 8 75 97 73 97 17 97 33 97 
19:33:21:7632 Rx 1 0x644 s 8 75 97 73 97 17 97 33 97 
19:33:21:7634 Rx 1 0x644 s 8 75 97 73 97 17 97 33 97 
19:33:21:7637 Rx 1 0x644 s 8 75 97 73 97 17 97 33 97 
19:33:21:7639 Rx 1 0x645 s 8 4A 95 38 95 07 95 5C 95 
19:33:21:7641 Rx 1 0x645 s 8 4A 95 38 95 07 95 5C 95 
19:33:21:7644 Rx 1 0x645 s 8 4A 95 38 95 07 95 5C 95 
19:33:21:7646 Rx 1 0x645 s 8 4A 95 38 95 07 95 5C 95 
19:33:21:7648 Rx 1 0x646 s 8 DF 94 5E 95 4D 95 6A 95 
19:33:21:7650 Rx 1 0x646 s 8 DF 94 5E 95 4D 95 6A 95 
19:33:21:7653 Rx 1 0x646 s 8 DF 94 5E 95 4D 95 6A 95 
19:33:21:7655 Rx 1 0x646 s 8 DF 94 5E 95 4D 95 6A 95 
19:33:21:7657 Rx 1 0x647 s 8 71 95 6F 95 70 95 39 95 
19:33:21:7660 Rx 1 0x647 s 8 71 95 6F 95 70 95 39 95 
19:33:21:7662 Rx 1 0x647 s 8 71 95 6F 95 70 95 39 95 
19:33:21:7664 Rx 1 0x647 s 8 71 95 6F 95 70 95 39 95 
19:33:21:7666 Rx 1 0x680 s 8 13 00 13 00 13 00 13 00 
19:33:21:7669 Rx 1 0x680 s 8 13 00 13 00 13 00 13 00 
19:33:21:7671 Rx 1 0x680 s 8 13 00 13 00 13 00 13 00 
19:33:21:7674 Rx 1 0x680 s 8 13 00 13 00 13 00 13 00 
19:33:21:7676 Rx 1 0x681 s 8 13 00 12 00 13 00 13 00 
19:33:21:7678 Rx 1 0x681 s 8 13 00 12 00 13 00 13 00 
19:33:21:7681 Rx 1 0x681 s 8 13 00 12 00 13 00 13 00 
19:33:21:7683 Rx 1 0x681 s 8 13 00 12 00 13 00 13 00 
19:33:21:7686 Rx 1 0x682 s 8 13 00 13 00 13 00 13 00 
19:33:21:7688 Rx 1 0x682 s 8 13 00 13 00 13 00 13 00 
19:33:21:7690 Rx 1 0x682 s 8 13 00 13 00 13 00 13 00 
19:33:21:7693 Rx 1 0x682 s 8 13 00 13 00 13 00 13 00 
19:33:21:7695 Rx 1 0x683 s 8 13 00 13 00 13 00 13 00 
19:33:21:7698 Rx 1 0x683 s 8 13 00 13 00 13 00 13 00 
19:33:21:7700 Rx 1 0x683 s 8 13 00 13 00 13 00 13 00 
19:33:21:7702 Rx 1 0x683 s 8 13 00 13 00 13 00 13 00 
19:33:21:7705 Rx 1 0x684 s 8 13 00 13 00 13 00 13 00 
19:33:21:7707 Rx 1 0x684 s 8 13 00 13 00 13 00 13 00 
19:33:21:7710 Rx 1 0x684 s 8 13 00 13 00 13 00 13 00 
19:33:21:7712 Rx 1 0x684 s 8 13 00 13 00 13 00 13 00 
19:33:21:7715 Rx 1 0x685 s 8 13 00 13 00 13 00 13 00 
19:33:21:7717 Rx 1 0x685 s 8 13 00 13 00 13 00 13 00 
19:33:21:7719 Rx 1 0x685 s 8 13 00 13 00 13 00 13 00 
19:33:21:7722 Rx 1 0x685 s 8 13 00 13 00 13 00 13 00 
19:33:21:7725 Rx 1 0x686 s 8 13 00 13 00 13 00 13 00 
19:33:21:7727 Rx 1 0x686 s 8 13 00 13 00 13 00 13 00 
19:33:21:7729 Rx 1 0x686 s 8 13 00 13 00 13 00 13 00 
19:33:21:7731 Rx 1 0x686 s 8 13 00 13 00 13 00 13 00 
19:33:21:7734 Rx 1 0x687 s 8 13 00 13 00 13 00 13 00 
19:33:21:7736 Rx 1 0x687 s 8 13 00 13 00 13 00 13 00 
19:33:21:7739 Rx 1 0x687 s 8 13 00 13 00 13 00 13 00 
19:33:21:7741 Rx 1 0x687 s 8 13 00 13 00 13 00 13 00 
19:33:21:7744 Rx 1 0x688 s 8 13 00 13 00 13 00 13 00 
19:33:21:7746 Rx 1 0x688 s 8 13 00 13 00 13 00 13 00 
19:33:21:7748 Rx 1 0x688 s 8 13 00 13 00 13 00 13 00 
19:33:21:7751 Rx 1 0x688 s 8 13 00 13 00 13 00 13 00 
19:33:21:7753 Rx 1 0x689 s 8 13 00 13 00 13 00 13 00 
19:33:21:7756 Rx 1 0x689 s 8 13 00 13 00 13 00 13 00 
19:33:21:7758 Rx 1 0x689 s 8 13 00 13 00 13 00 13 00 
19:33:21:7760 Rx 1 0x689 s 8 13 00 13 00 13 00 13 00 
19:33:21:7763 Rx 1 0x68A s 8 13 00 13 00 13 00 13 00 
19:33:21:7765 Rx 1 0x68A s 8 13 00 13 00 13 00 13 00 
19:33:21:7768 Rx 1 0x68A s 8 13 00 13 00 13 00 13 00 
19:33:21:7770 Rx 1 0x68A s 8 13 00 13 00 13 00 13 00 
19:33:21:7772 Rx 1 0x68B s 8 13 00 13 00 13 00 13 00 
19:33:21:7775 Rx 1 0x68B s 8 13 00 13 00 13 00 13 00 
19:33:21:7777 Rx 1 0x68B s 8 13 00 13 00 13 00 13 00 
19:33:21:7780 Rx 1 0x68B s 8 13 00 13 00 13 00 13 00 
19:33:21:7782 Rx 1 0x68C s 8 13 00 13 00 13 00 13 00 
19:33:21:7784 Rx 1 0x68C s 8 13 00 13 00 13 00 13 00 
19:33:21:7787 Rx 1 0x68C s 8 13 00 13 00 13 00 13 00 
19:33:21:7789 Rx 1 0x68C s 8 13 00 13 00 13 00 13 00 
19:33:21:7792 Rx 1 0x68D s 8 13 00 13 00 13 00 13 00 
19:33:21:7794 Rx 1 0x68D s 8 13 00 13 00 13 00 13 00 
19:33:21:7796 Rx 1 0x68D s 8 13 00 13 00 13 00 13 00 
19:33:21:7799 Rx 1 0x68D s 8 13 00 13 00 13 00 13 00 
19:33:21:7801 Rx 1 0x68E s 8 12 00 13 00 13 00 13 00 
19:33:21:7803 Rx 1 0x68E s 8 12 00 13 00 13 00 13 00 
19:33:21:7806 Rx 1 0x68E s 8 12 00 13 00 13 00 13 00 
19:33:21:7808 Rx 1 0x68E s 8 12 00 13 00 13 00 13 00 
19:33:21:7811 Rx 1 0x68F s 8 13 00 13 00 13 00 13 00 
19:33:21:7813 Rx 1 0x68F s 8 13 00 13 00 13 00 13 00 
19:33:21:7815 Rx 1 0x68F s 8 13 00 13 00 13 00 13 00 
19:33:21:7818 Rx 1 0x68F s 8 13 00 13 00 13 00 13 00 
19:33:21:7821 Rx 1 0x690 s 8 13 00 13 00 13 00 13 00 
19:33:21:7823 Rx 1 0x690 s 8 13 00 13 00 13 00 13 00 
19:33:21:7825 Rx 1 0x690 s 8 13 00 13 00 13 00 13 00 
19:33:21:7827 Rx 1 0x690 s 8 13 00 13 00 13 00 13 00 
19:33:21:7830 Rx 1 0x691 s 8 13 00 12 00 13 00 13 00 
19:33:21:7832 Rx 1 0x691 s 8 13 00 12 00 13 00 13 00 
19:33:21:7835 Rx 1 0x691 s 8 13 00 12 00 13 00 13 00 
19:33:21:7837 Rx 1 0x691 s 8 13 00 12 00 13 00 13 00 
19:33:21:7839 Rx 1 0x692 s 8 13 00 13 00 13 00 13 00 
19:33:21:7842 Rx 1 0x692 s 8 13 00 13 00 13 00 13 00 
19:33:21:7844 Rx 1 0x692 s 8 13 00 13 00 13 00 13 00 
19:33:21:7847 Rx 1 0x692 s 8 13 00 13 00 13 00 13 00 
19:33:21:7849 Rx 1 0x693 s 8 13 00 13 00 13 00 13 00 
19:33:21:7851 Rx 1 0x693 s 8 13 00 13 00 13 00 13 00 
19:33:21:7854 Rx 1 0x693 s 8 13 00 13 00 13 00 13 00 
19:33:21:7856 Rx 1 0x693 s 8 13 00 13 00 13 00 13 00 
19:33:21:7858 Rx 1 0x694 s 8 13 00 13 00 13 00 13 00 
19:33:21:7861 Rx 1 0x694 s 8 13 00 13 00 13 00 13 00 
19:33:21:7863 Rx 1 0x694 s 8 13 00 13 00 13 00 13 00 
19:33:21:7866 Rx 1 0x694 s 8 13 00 13 00 13 00 13 00 
19:33:21:7868 Rx 1 0x695 s 8 13 00 13 00 13 00 13 00 
19:33:21:7870 Rx 1 0x695 s 8 13 00 13 00 13 00 13 00 
19:33:21:7873 Rx 1 0x695 s 8 13 00 13 00 13 00 13 00 
19:33:21:7875 Rx 1 0x695 s 8 13 00 13 00 13 00 13 00 
19:33:21:7878 Rx 1 0x696 s 8 13 00 13 00 13 00 13 00 
19:33:21:7880 Rx 1 0x696 s 8 13 00 13 00 13 00 13 00 
19:33:21:7882 Rx 1 0x696 s 8 13 00 13 00 13 00 13 00 
19:33:21:7885 Rx 1 0x696 s 8 13 00 13 00 13 00 13 00 
19:33:21:7887 Rx 1 0x697 s 8 13 00 13 00 13 00 13 00 
19:33:21:7890 Rx 1 0x697 s 8 13 00 13 00 13 00 13 00 
19:33:21:7892 Rx 1 0x697 s 8 13 00 13 00 13 00 13 00 
19:33:21:7894 Rx 1 0x601 s 8 12 5D 63 37 92 00 00 00 
19:33:21:7897 Rx 1 0x697 s 8 13 00 13 00 13 00 13 00 
19:33:21:8215 Rx 1 0x600 s 8 00 00 00 A6 00 00 00 00 
19:33:21:8217 Rx 1 0x622 s 8 D4 97 B2 91 13 00 13 00 
19:33:21:8219 Rx 1 0x630 s 8 CB 94 2A 95 F1 94 20 95 
19:33:21:8222 Rx 1 0x630 s 8 CB 94 2A 95 F1 94 20 95 
19:33:21:8224 Rx 1 0x630 s 8 CB 94 2A 95 F1 94 20 95 
19:33:21:8226 Rx 1 0x630 s 8 CB 94 2A 95 F1 94 20 95 
19:33:21:8228 Rx 1 0x631 s 8 FC 94 0D 95 ED 94 20 95 
19:33:21:8231 Rx 1 0x631 s 8 FC 94 0D 95 ED 94 20 95 
19:33:21:8233 Rx 1 0x631 s 8 FC 94 0D 95 ED 94 20 95 
19:33:21:8235 Rx 1 0x631 s 8 FC 94 0D 95 ED 94 20 95 
19:33:21:8237 Rx 1 0x632 s 8 21 95 0E 95 09 95 DE 94 
19:33:21:8239 Rx 1 0x632 s 8 21 95 0E 95 09 95 DE 94 
19:33:21:8242 Rx 1 0x632 s 8 21 95 0E 95 09 95 DE 94 
19:33:21:8244 Rx 1 0x632 s 8 21 95 0E 95 09 95 DE 94 
19:33:21:8246 Rx 1 0x633 s 8 68 94 C6 94 C4 94 C5 94 
19:33:21:8248 Rx 1 0x633 s 8 68 94 C6 94 C4 94 C5 94 
19:33:21:8251 Rx 1 0x633 s 8 68 94 C6 94 C4 94 C5 94 
19:33:21:8253 Rx 1 0x633 s 8 68 94 C6 94 C4 94 C5 94 
19:33:21:8255 Rx 1 0x634 s 8 C3 94 AF 94 B2 94 AC 94 
19:33:21:8257 Rx 1 0x634 s 8 C3 94 AF 94 B2 94 AC 94 
19:33:21:8260 Rx 1 0x634 s 8 C3 94 AF 94 B2 94 AC 94 
19:33:21:8262 Rx 1 0x634 s 8 C3 94 AF 94 B2 94 AC 94 
19:33:21:8264 Rx 1 0x635 s 8 BC 94 BE 94 B9 94 77 94 
19:33:21:8266 Rx 1 0x635 s 8 BC 94 BE 94 B9 94 77 94 
19:33:21:8269 Rx 1 0x635 s 8 BC 94 BE 94 B9 94 77 94 
19:33:21:8271 Rx 1 0x635 s 8 BC 94 BE 94 B9 94 77 94 
19:33:21:8273 Rx 1 0x636 s 8 19 95 35 95 48 95 4E 95 
19:33:21:8275 Rx 1 0x636 s 8 19 95 35 95 48 95 4E 95 
19:33:21:8278 Rx 1 0x636 s 8 19 95 35 95 48 95 4E 95 
19:33:21:8280 Rx 1 0x636 s 8 19 95 35 95 48 95 4E 95 
19:33:21:8282 Rx 1 0x637 s 8 3F 95 33 95 34 95 3E 95 
19:33:21:8285 Rx 1 0x637 s 8 3F 95 33 95 34 95 3E 95 
19:33:21:8287 Rx 1 0x637 s 8 3F 95 33 95 34 95 3E 95 
19:33:21:8289 Rx 1 0x637 s 8 3F 95 33 95 34 95 3E 95 
19:33:21:8292 Rx 1 0x638 s 8 47 95 49 95 47 95 2F 95 
19:33:21:8294 Rx 1 0x638 s 8 47 95 49 95 47 95 2F 95 
19:33:21:8296 Rx 1 0x638 s 8 47 95 49 95 47 95 2F 95 
19:33:21:8298 Rx 1 0x638 s 8 47 95 49 95 47 95 2F 95 
19:33:21:8301 Rx 1 0x639 s 8 60 95 4E 95 47 95 33 95 
19:33:21:8303 Rx 1 0x639 s 8 60 95 4E 95 47 95 33 95 
19:33:21:8305 Rx 1 0x639 s 8 60 95 4E 95 47 95 33 95 
19:33:21:8307 Rx 1 0x639 s 8 60 95 4E 95 47 95 33 95 
19:33:21:8309 Rx 1 0x63A s 8 33 95 30 95 2C 95 0C 95 
19:33:21:8312 Rx 1 0x63A s 8 33 95 30 95 2C 95 0C 95 
19:33:21:8314 Rx 1 0x63A s 8 33 95 30 95 2C 95 0C 95 
19:33:21:8316 Rx 1 0x63A s 8 33 95 30 95 2C 95 0C 95 
19:33:21:8319 Rx 1 0x63B s 8 41 95 44 95 1D 95 02 95 
19:33:21:8321 Rx 1 0x63B s 8 41 95 44 95 1D 95 02 95 
19:33:21:8323 Rx 1 0x63B s 8 41 95 44 95 1D 95 02 95 
19:33:21:8326 Rx 1 0x63B s 8 41 95 44 95 1D 95 02 95 
19:33:21:8328 Rx 1 0x63C s 8 F7 94 41 95 0E 95 13 95 
19:33:21:8330 Rx 1 0x63C s 8 F7 94 41 95 0E 95 13 95 
19:33:21:8333 Rx 1 0x63C s 8 F7 94 41 95 0E 95 13 95 
19:33:21:8335 Rx 1 0x63C s 8 F7 94 41 95 0E 95 13 95 
19:33:21:8337 Rx 1 0x63D s 8 C9 94 0D 95 20 95 35 95 
19:33:21:8339 Rx 1 0x63D s 8 C9 94 0D 95 20 95 35 95 
19:33:21:8341 Rx 1 0x63D s 8 C9 94 0D 95 20 95 35 95 
19:33:21:8344 Rx 1 0x63D s 8 C9 94 0D 95 20 95 35 95 
19:33:21:8346 Rx 1 0x63E s 8 2B 95 B2 91 08 95 FD 94 
19:33:21:8348 Rx 1 0x63E s 8 2B 95 B2 91 08 95 FD 94 
19:33:21:8350 Rx 1 0x63E s 8 2B 95 B2 91 08 95 FD 94 
19:33:21:8353 Rx 1 0x63E s 8 2B 95 B2 91 08 95 FD 94 
19:33:21:8355 Rx 1 0x63F s 8 20 95 62 95 2E 95 5A 95 
19:33:21:8357 Rx 1 0x63F s 8 20 95 62 95 2E 95 5A 95 
19:33:21:8360 Rx 1 0x63F s 8 20 95 62 95 2E 95 5A 95 
19:33:21:8362 Rx 1 0x63F s 8 20 95 62 95 2E 95 5A 95 
19:33:21:8365 Rx 1 0x640 s 8 58 95 3E 95 46 95 33 95 
19:33:21:8367 Rx 1 0x640 s 8 58 95 3E 95 46 95 33 95 
19:33:21:8369 Rx 1 0x640 s 8 58 95 3E 95 46 95 33 95 
19:33:21:8371 Rx 1 0x640 s 8 58 95 3E 95 46 95 33 95 
19:33:21:8373 Rx 1 0x641 s 8 1B 95 59 95 54 95 1F 95 
19:33:21:8376 Rx 1 0x641 s 8 1B 95 59 95 54 95 1F 95 
19:33:21:8378 Rx 1 0x641 s 8 1B 95 59 95 54 95 1F 95 
19:33:21:8380 Rx 1 0x641 s 8 1B 95 59 95 54 95 1F 95 
19:33:21:8383 Rx 1 0x642 s 8 73 96 6E 96 7E 95 AB 95 
19:33:21:8385 Rx 1 0x642 s 8 73 96 6E 96 7E 95 AB 95 
19:33:21:8387 Rx 1 0x642 s 8 73 96 6E 96 7E 95 AB 95 
19:33:21:8389 Rx 1 0x642 s 8 73 96 6E 96 7E 95 AB 95 
19:33:21:8392 Rx 1 0x643 s 8 BD 97 D4 97 D2 97 BD 96 
19:33:21:8394 Rx 1 0x643 s 8 BD 97 D4 97 D2 97 BD 96 
19:33:21:8396 Rx 1 0x643 s 8 BD 97 D4 97 D2 97 BD 96 
19:33:21:8398 Rx 1 0x643 s 8 BD 97 D4 97 D2 97 BD 96 
19:33:21:8401 Rx 1 0x644 s 8 7B 97 74 97 14 97 39 97 
19:33:21:8403 Rx 1 0x644 s 8 7B 97 74 97 14 97 39 97 
19:33:21:8405 Rx 1 0x644 s 8 7B 97 74 97 14 97 39 97 
19:33:21:8408 Rx 1 0x644 s 8 7B 97 74 97 14 97 39 97 
19:33:21:8410 Rx 1 0x645 s 8 4A 95 38 95 07 95 5C 95 
19:33:21:8412 Rx 1 0x645 s 8 4A 95 38 95 07 95 5C 95 
19:33:21:8414 Rx 1 0x645 s 8 4A 95 38 95 07 95 5C 95 
19:33:21:8417 Rx 1 0x645 s 8 4A 95 38 95 07 95 5C 95 
19:33:21:8419 Rx 1 0x646 s 8 DF 94 5E 95 4B 95 69 95 
19:33:21:8421 Rx 1 0x646 s 8 DF 94 5E 95 4B 95 69 95 
19:33:21:8423 Rx 1 0x646 s 8 DF 94 5E 95 4B 95 69 95 
19:33:21:8426 Rx 1 0x646 s 8 DF 94 5E 95 4B 95 69 95 
19:33:21:8428 Rx 1 0x647 s 8 70 95 6F 95 70 95 3A 95 
19:33:21:8430 Rx 1 0x647 s 8 70 95 6F 95 70 95 3A 95 
19:33:21:8432 Rx 1 0x647 s 8 70 95 6F 95 70 95 3A 95 
19:33:21:8434 Rx 1 0x647 s 8 70 95 6F 95 70 95 3A 95 
19:33:21:8437 Rx 1 0x680 s 8 13 00 13 00 13 00 13 00 
19:33:21:8440 Rx 1 0x680 s 8 13 00 13 00 13 00 13 00 
19:33:21:8442 Rx 1 0x680 s 8 13 00 13 00 13 00 13 00 
19:33:21:8444 Rx 1 0x680 s 8 13 00 13 00 13 00 13 00 
19:33:21:8447 Rx 1 0x681 s 8 13 00 12 00 13 00 13 00 
19:33:21:8449 Rx 1 0x681 s 8 13 00 12 00 13 00 13 00 
19:33:21:8452 Rx 1 0x681 s 8 13 00 12 00 13 00 13 00 
19:33:21:8454 Rx 1 0x681 s 8 13 00 12 00 13 00 13 00 
19:33:21:8456 Rx 1 0x682 s 8 13 00 13 00 13 00 13 00 
19:33:21:8459 Rx 1 0x682 s 8 13 00 13 00 13 00 13 00 
19:33:21:8461 Rx 1 0x682 s 8 13 00 13 00 13 00 13 00 
19:33:21:8463 Rx 1 0x682 s 8 13 00 13 00 13 00 13 00 
19:33:21:8466 Rx 1 0x683 s 8 13 00 13 00 13 00 13 00 
19:33:21:8468 Rx 1 0x683 s 8 13 00 13 00 13 00 13 00 
19:33:21:8471 Rx 1 0x683 s 8 13 00 13 00 13 00 13 00 
19:33:21:8473 Rx 1 0x683 s 8 13 00 13 00 13 00 13 00 
19:33:21:8475 Rx 1 0x684 s 8 13 00 13 00 13 00 13 00 
19:33:21:8478 Rx 1 0x684 s 8 13 00 13 00 13 00 13 00 
19:33:21:8481 Rx 1 0x684 s 8 13 00 13 00 13 00 13 00 
19:33:21:8483 Rx 1 0x684 s 8 13 00 13 00 13 00 13 00 
19:33:21:8485 Rx 1 0x685 s 8 13 00 13 00 13 00 13 00 
19:33:21:8488 Rx 1 0x685 s 8 13 00 13 00 13 00 13 00 
19:33:21:8490 Rx 1 0x685 s 8 13 00 13 00 13 00 13 00 
19:33:21:8493 Rx 1 0x685 s 8 13 00 13 00 13 00 13 00 
19:33:21:8495 Rx 1 0x686 s 8 13 00 13 00 13 00 13 00 
19:33:21:8497 Rx 1 0x686 s 8 13 00 13 00 13 00 13 00 
19:33:21:8500 Rx 1 0x686 s 8 13 00 13 00 13 00 13 00 
19:33:21:8502 Rx 1 0x686 s 8 13 00 13 00 13 00 13 00 
19:33:21:8504 Rx 1 0x687 s 8 13 00 13 00 13 00 13 00 
19:33:21:8507 Rx 1 0x687 s 8 13 00 13 00 13 00 13 00 
19:33:21:8509 Rx 1 0x687 s 8 13 00 13 00 13 00 13 00 
19:33:21:8512 Rx 1 0x687 s 8 13 00 13 00 13 00 13 00 
19:33:21:8514 Rx 1 0x688 s 8 13 00 13 00 13 00 13 00 
19:33:21:8516 Rx 1 0x688 s 8 13 00 13 00 13 00 13 00 
19:33:21:8519 Rx 1 0x688 s 8 13 00 13 00 13 00 13 00 
19:33:21:8522 Rx 1 0x688 s 8 13 00 13 00 13 00 13 00 
19:33:21:8524 Rx 1 0x689 s 8 13 00 13 00 13 00 13 00 
19:33:21:8526 Rx 1 0x689 s 8 13 00 13 00 13 00 13 00 
19:33:21:8528 Rx 1 0x689 s 8 13 00 13 00 13 00 13 00 
19:33:21:8531 Rx 1 0x689 s 8 13 00 13 00 13 00 13 00 
19:33:21:8533 Rx 1 0x68A s 8 13 00 13 00 13 00 13 00 
19:33:21:8536 Rx 1 0x68A s 8 13 00 13 00 13 00 13 00 
19:33:21:8538 Rx 1 0x68A s 8 13 00 13 00 13 00 13 00 
19:33:21:8540 Rx 1 0x68A s 8 13 00 13 00 13 00 13 00 
19:33:21:8543 Rx 1 0x68B s 8 13 00 13 00 13 00 13 00 
19:33:21:8545 Rx 1 0x68B s 8 13 00 13 00 13 00 13 00 
19:33:21:8548 Rx 1 0x68B s 8 13 00 13 00 13 00 13 00 
19:33:21:8550 Rx 1 0x68B s 8 13 00 13 00 13 00 13 00 
19:33:21:8552 Rx 1 0x68C s 8 13 00 13 00 13 00 13 00 
19:33:21:8555 Rx 1 0x68C s 8 13 00 13 00 13 00 13 00 
19:33:21:8557 Rx 1 0x68C s 8 13 00 13 00 13 00 13 00 
19:33:21:8559 Rx 1 0x68C s 8 13 00 13 00 13 00 13 00 
19:33:21:8562 Rx 1 0x68D s 8 13 00 13 00 13 00 13 00 
19:33:21:8565 Rx 1 0x68D s 8 13 00 13 00 13 00 13 00 
19:33:21:8567 Rx 1 0x68D s 8 13 00 13 00 13 00 13 00 
19:33:21:8569 Rx 1 0x68D s 8 13 00 13 00 13 00 13 00 
19:33:21:8572 Rx 1 0x68E s 8 12 00 13 00 13 00 13 00 
19:33:21:8574 Rx 1 0x68E s 8 12 00 13 00 13 00 13 00 
19:33:21:8577 Rx 1 0x68E s 8 12 00 13 00 13 00 13 00 
19:33:21:8579 Rx 1 0x68E s 8 12 00 13 00 13 00 13 00 
19:33:21:8581 Rx 1 0x68F s 8 13 00 13 00 13 00 13 00 
19:33:21:8584 Rx 1 0x68F s 8 13 00 13 00 13 00 13 00 
19:33:21:8586 Rx 1 0x68F s 8 13 00 13 00 13 00 13 00 
19:33:21:8589 Rx 1 0x68F s 8 13 00 13 00 13 00 13 00 
19:33:21:8591 Rx 1 0x690 s 8 13 00 13 00 13 00 13 00 
19:33:21:8593 Rx 1 0x690 s 8 13 00 13 00 13 00 13 00 
19:33:21:8596 Rx 1 0x690 s 8 13 00 13 00 13 00 13 00 
19:33:21:8598 Rx 1 0x690 s 8 13 00 13 00 13 00 13 00 
19:33:21:8600 Rx 1 0x691 s 8 13 00 12 00 13 00 13 00 
19:33:21:8603 Rx 1 0x691 s 8 13 00 12 00 13 00 13 00 
19:33:21:8605 Rx 1 0x691 s 8 13 00 12 00 13 00 13 00 
19:33:21:8608 Rx 1 0x691 s 8 13 00 12 00 13 00 13 00 
19:33:21:8610 Rx 1 0x692 s 8 13 00 13 00 13 00 13 00 
19:33:21:8612 Rx 1 0x692 s 8 13 00 13 00 13 00 13 00 
19:33:21:8615 Rx 1 0x692 s 8 13 00 13 00 13 00 13 00 
19:33:21:8617 Rx 1 0x692 s 8 13 00 13 00 13 00 13 00 
19:33:21:8620 Rx 1 0x693 s 8 13 00 13 00 13 00 13 00 
19:33:21:8622 Rx 1 0x693 s 8 13 00 13 00 13 00 13 00 
19:33:21:8624 Rx 1 0x693 s 8 13 00 13 00 13 00 13 00 
19:33:21:8626 Rx 1 0x693 s 8 13 00 13 00 13 00 13 00 
19:33:21:8629 Rx 1 0x694 s 8 13 00 13 00 13 00 13 00 
19:33:21:8632 Rx 1 0x694 s 8 13 00 13 00 13 00 13 00 
19:33:21:8634 Rx 1 0x694 s 8 13 00 13 00 13 00 13 00 
19:33:21:8636 Rx 1 0x694 s 8 13 00 13 00 13 00 13 00 
19:33:21:8639 Rx 1 0x695 s 8 13 00 13 00 13 00 13 00 
19:33:21:8641 Rx 1 0x695 s 8 13 00 13 00 13 00 13 00 
19:33:21:8644 Rx 1 0x695 s 8 13 00 13 00 13 00 13 00 
19:33:21:8646 Rx 1 0x695 s 8 13 00 13 00 13 00 13 00 
19:33:21:8648 Rx 1 0x696 s 8 13 00 13 00 13 00 13 00 
19:33:21:8651 Rx 1 0x696 s 8 13 00 13 00 13 00 13 00 
19:33:21:8653 Rx 1 0x696 s 8 13 00 13 00 13 00 13 00 
19:33:21:8655 Rx 1 0x696 s 8 13 00 13 00 13 00 13 00 
19:33:21:8658 Rx 1 0x697 s 8 13 00 13 00 13 00 13 00 
19:33:21:8660 Rx 1 0x697 s 8 13 00 13 00 13 00 13 00 
19:33:21:8663 Rx 1 0x697 s 8 13 00 13 00 13 00 13 00 
19:33:21:8665 Rx 1 0x601 s 8 12 5D 63 2A 90 00 00 00 
19:33:21:8667 Rx 1 0x697 s 8 13 00 13 00 13 00 13 00 
19:33:21:9464 Rx 1 0x600 s 8 00 00 00 A7 00 00 00 00 
19:33:21:9467 Rx 1 0x622 s 8 D2 97 B3 91 13 00 13 00 
19:33:21:9469 Rx 1 0x630 s 8 CA 94 2A 95 F1 94 1D 95 
19:33:21:9471 Rx 1 0x630 s 8 CA 94 2A 95 F1 94 1D 95 
19:33:21:9474 Rx 1 0x630 s 8 CA 94 2A 95 F1 94 1D 95 
19:33:21:9476 Rx 1 0x630 s 8 CA 94 2A 95 F1 94 1D 95 
19:33:21:9479 Rx 1 0x631 s 8 FC 94 0D 95 ED 94 1D 95 
19:33:21:9481 Rx 1 0x631 s 8 FC 94 0D 95 ED 94 1D 95 
19:33:21:9483 Rx 1 0x631 s 8 FC 94 0D 95 ED 94 1D 95 
19:33:21:9485 Rx 1 0x631 s 8 FC 94 0D 95 ED 94 1D 95 
19:33:21:9487 Rx 1 0x632 s 8 21 95 0E 95 0A 95 DF 94 
19:33:21:9490 Rx 1 0x632 s 8 21 95 0E 95 0A 95 DF 94 
19:33:21:9492 Rx 1 0x632 s 8 21 95 0E 95 0A 95 DF 94 
19:33:21:9494 Rx 1 0x632 s 8 21 95 0E 95 0A 95 DF 94 
19:33:21:9496 Rx 1 0x633 s 8 67 94 C6 94 C3 94 C6 94 
19:33:21:9499 Rx 1 0x633 s 8 67 94 C6 94 C3 94 C6 94 
19:33:21:9501 Rx 1 0x633 s 8 67 94 C6 94 C3 94 C6 94 
19:33:21:9503 Rx 1 0x633 s 8 67 94 C6 94 C3 94 C6 94 
19:33:21:9506 Rx 1 0x634 s 8 C3 94 AF 94 B1 94 AD 94 
19:33:21:9508 Rx 1 0x634 s 8 C3 94 AF 94 B1 94 AD 94 
19:33:21:9510 Rx 1 0x634 s 8 C3 94 AF 94 B1 94 AD 94 
19:33:21:9512 Rx 1 0x634 s 8 C3 94 AF 94 B1 94 AD 94 
19:33:21:9515 Rx 1 0x635 s 8 BD 94 C0 94 BA 94 78 94 
19:33:21:9517 Rx 1 0x635 s 8 BD 94 C0 94 BA 94 78 94 
19:33:21:9519 Rx 1 0x635 s 8 BD 94 C0 94 BA 94 78 94 
19:33:21:9521 Rx 1 0x635 s 8 BD 94 C0 94 BA 94 78 94 
19:33:21:9524 Rx 1 0x636 s 8 18 95 36 95 48 95 48 95 
19:33:21:9526 Rx 1 0x636 s 8 18 95 36 95 48 95 48 95 
19:33:21:9528 Rx 1 0x636 s 8 18 95 36 95 48 95 48 95 
19:33:21:9530 Rx 1 0x636 s 8 18 95 36 95 48 95 48 95 
19:33:21:9533 Rx 1 0x637 s 8 3C 95 33 95 34 95 3F 95 
19:33:21:9535 Rx 1 0x637 s 8 3C 95 33 95 34 95 3F 95 
19:33:21:9537 Rx 1 0x637 s 8 3C 95 33 95 34 95 3F 95 
19:33:21:9540 Rx 1 0x637 s 8 3C 95 33 95 34 95 3F 95 
19:33:21:9542 Rx 1 0x638 s 8 4A 95 4A 95 44 95 2D 95 
19:33:21:9544 Rx 1 0x638 s 8 4A 95 4A 95 44 95 2D 95 
19:33:21:9546 Rx 1 0x638 s 8 4A 95 4A 95 44 95 2D 95 
19:33:21:9548 Rx 1 0x638 s 8 4A 95 4A 95 44 95 2D 95 
19:33:21:9551 Rx 1 0x639 s 8 61 95 4C 95 47 95 2A 95 
19:33:21:9553 Rx 1 0x639 s 8 61 95 4C 95 47 95 2A 95 
19:33:21:9555 Rx 1 0x639 s 8 61 95 4C 95 47 95 2A 95 
19:33:21:9557 Rx 1 0x639 s 8 61 95 4C 95 47 95 2A 95 
19:33:21:9560 Rx 1 0x63A s 8 30 95 2E 95 2E 95 0E 95 
19:33:21:9562 Rx 1 0x63A s 8 30 95 2E 95 2E 95 0E 95 
19:33:21:9564 Rx 1 0x63A s 8 30 95 2E 95 2E 95 0E 95 
19:33:21:9566 Rx 1 0x63A s 8 30 95 2E 95 2E 95 0E 95 
19:33:21:9569 Rx 1 0x63B s 8 42 95 47 95 1B 95 04 95 
19:33:21:9571 Rx 1 0x63B s 8 42 95 47 95 1B 95 04 95 
19:33:21:9573 Rx 1 0x63B s 8 42 95 47 95 1B 95 04 95 
19:33:21:9575 Rx 1 0x63B s 8 42 95 47 95 1B 95 04 95 
19:33:21:9578 Rx 1 0x63C s 8 F6 94 3F 95 0E 95 16 95 
19:33:21:9580 Rx 1 0x63C s 8 F6 94 3F 95 0E 95 16 95 
19:33:21:9582 Rx 1 0x63C s 8 F6 94 3F 95 0E 95 16 95 
19:33:21:9584 Rx 1 0x63C s 8 F6 94 3F 95 0E 95 16 95 
19:33:21:9587 Rx 1 0x63D s 8 CD 94 0D 95 21 95 34 95 
19:33:21:9589 Rx 1 0x63D s 8 CD 94 0D 95 21 95 34 95 
19:33:21:9591 Rx 1 0x63D s 8 CD 94 0D 95 21 95 34 95 
19:33:21:9594 Rx 1 0x63D s 8 CD 94 0D 95 21 95 34 95 
19:33:21:9596 Rx 1 0x63E s 8 2A 95 B3 91 0E 95 FF 94 
19:33:21:9598 Rx 1 0x63E s 8 2A 95 B3 91 0E 95 FF 94 
19:33:21:9601 Rx 1 0x63E s 8 2A 95 B3 91 0E 95 FF 94 
19:33:21:9603 Rx 1 0x63E s 8 2A 95 B3 91 0E 95 FF 94 
19:33:21:9605 Rx 1 0x63F s 8 20 95 5A 95 30 95 5A 95 
19:33:21:9607 Rx 1 0x63F s 8 20 95 5A 95 30 95 5A 95 
19:33:21:9610 Rx 1 0x63F s 8 20 95 5A 95 30 95 5A 95 
19:33:21:9612 Rx 1 0x63F s 8 20 95 5A 95 30 95 5A 95 
19:33:21:9614 Rx 1 0x640 s 8 58 95 48 95 49 95 37 95 
19:33:21:9616 Rx 1 0x640 s 8 58 95 48 95 49 95 37 95 
19:33:21:9619 Rx 1 0x640 s 8 58 95 48 95 49 95 37 95 
19:33:21:9621 Rx 1 0x640 s 8 58 95 48 95 49 95 37 95 
19:33:21:9623 Rx 1 0x641 s 8 1A 95 5D 95 56 95 22 95 
19:33:21:9625 Rx 1 0x641 s 8 1A 95 5D 95 56 95 22 95 
19:33:21:9628 Rx 1 0x641 s 8 1A 95 5D 95 56 95 22 95 
19:33:21:9630 Rx 1 0x641 s 8 1A 95 5D 95 56 95 22 95 
19:33:21:9632 Rx 1 0x642 s 8 73 96 6F 96 7E 95 AD 95 
19:33:21:9635 Rx 1 0x642 s 8 73 96 6F 96 7E 95 AD 95 
19:33:21:9637 Rx 1 0x642 s 8 73 96 6F 96 7E 95 AD 95 
19:33:21:9639 Rx 1 0x642 s 8 73 96 6F 96 7E 95 AD 95 
19:33:21:9642 Rx 1 0x643 s 8 B6 97 D2 97 D2 97 B6 96 
19:33:21:9644 Rx 1 0x643 s 8 B6 97 D2 97 D2 97 B6 96 
19:33:21:9646 Rx 1 0x643 s 8 B6 97 D2 97 D2 97 B6 96 
19:33:21:9648 Rx 1 0x643 s 8 B6 97 D2 97 D2 97 B6 96 
19:33:21:9650 Rx 1 0x644 s 8 73 97 76 97 14 97 33 97 
19:33:21:9653 Rx 1 0x644 s 8 73 97 76 97 14 97 33 97 
19:33:21:9655 Rx 1 0x644 s 8 73 97 76 97 14 97 33 97 
19:33:21:9657 Rx 1 0x644 s 8 73 97 76 97 14 97 33 97 
19:33:21:9659 Rx 1 0x645 s 8 49 95 37 95 07 95 5D 95 
19:33:21:9662 Rx 1 0x645 s 8 49 95 37 95 07 95 5D 95 
19:33:21:9664 Rx 1 0x645 s 8 49 95 37 95 07 95 5D 95 
19:33:21:9666 Rx 1 0x645 s 8 49 95 37 95 07 95 5D 95 
19:33:21:9668 Rx 1 0x646 s 8 DF 94 5D 95 4C 95 6A 95 
19:33:21:9671 Rx 1 0x646 s 8 DF 94 5D 95 4C 95 6A 95 
19:33:21:9673 Rx 1 0x646 s 8 DF 94 5D 95 4C 95 6A 95 
19:33:21:9675 Rx 1 0x646 s 8 DF 94 5D 95 4C 95 6A 95 
19:33:21:9677 Rx 1 0x647 s 8 71 95 70 95 6E 95 3B 95 
19:33:21:9679 Rx 1 0x647 s 8 71 95 70 95 6E 95 3B 95 
19:33:21:9682 Rx 1 0x647 s 8 71 95 70 95 6E 95 3B 95 
19:33:21:9684 Rx 1 0x647 s 8 71 95 70 95 6E 95 3B 95 
19:33:21:9687 Rx 1 0x680 s 8 13 00 13 00 13 00 13 00 
19:33:21:9689 Rx 1 0x680 s 8 13 00 13 00 13 00 13 00 
19:33:21:9691 Rx 1 0x680 s 8 13 00 13 00 13 00 13 00 
19:33:21:9694 Rx 1 0x680 s 8 13 00 13 00 13 00 13 00 
19:33:21:9696 Rx 1 0x681 s 8 13 00 13 00 13 00 13 00 
19:33:21:9699 Rx 1 0x681 s 8 13 00 13 00 13 00 13 00 
19:33:21:9701 Rx 1 0x681 s 8 13 00 13 00 13 00 13 00 
19:33:21:9703 Rx 1 0x681 s 8 13 00 13 00 13 00 13 00 
19:33:21:9706 Rx 1 0x682 s 8 13 00 13 00 13 00 13 00 
19:33:21:9708 Rx 1 0x682 s 8 13 00 13 00 13 00 13 00 
19:33:21:9711 Rx 1 0x682 s 8 13 00 13 00 13 00 13 00 
19:33:21:9713 Rx 1 0x682 s 8 13 00 13 00 13 00 13 00 
19:33:21:9715 Rx 1 0x683 s 8 13 00 13 00 13 00 13 00 
19:33:21:9718 Rx 1 0x683 s 8 13 00 13 00 13 00 13 00 
19:33:21:9720 Rx 1 0x683 s 8 13 00 13 00 13 00 13 00 
19:33:21:9723 Rx 1 0x683 s 8 13 00 13 00 13 00 13 00 
19:33:21:9725 Rx 1 0x684 s 8 13 00 13 00 13 00 13 00 
19:33:21:9727 Rx 1 0x684 s 8 13 00 13 00 13 00 13 00 
19:33:21:9730 Rx 1 0x684 s 8 13 00 13 00 13 00 13 00 
19:33:21:9732 Rx 1 0x684 s 8 13 00 13 00 13 00 13 00 
19:33:21:9735 Rx 1 0x685 s 8 13 00 13 00 13 00 13 00 
19:33:21:9737 Rx 1 0x685 s 8 13 00 13 00 13 00 13 00 
19:33:21:9740 Rx 1 0x685 s 8 13 00 13 00 13 00 13 00 
19:33:21:9742 Rx 1 0x685 s 8 13 00 13 00 13 00 13 00 
19:33:21:9744 Rx 1 0x686 s 8 13 00 13 00 13 00 13 00 
19:33:21:9747 Rx 1 0x686 s 8 13 00 13 00 13 00 13 00 
19:33:21:9749 Rx 1 0x686 s 8 13 00 13 00 13 00 13 00 
19:33:21:9752 Rx 1 0x686 s 8 13 00 13 00 13 00 13 00 
19:33:21:9754 Rx 1 0x687 s 8 13 00 13 00 13 00 13 00 
19:33:21:9756 Rx 1 0x687 s 8 13 00 13 00 13 00 13 00 
19:33:21:9759 Rx 1 0x687 s 8 13 00 13 00 13 00 13 00 
19:33:21:9761 Rx 1 0x687 s 8 13 00 13 00 13 00 13 00 
19:33:21:9764 Rx 1 0x688 s 8 13 00 13 00 13 00 13 00 
19:33:21:9766 Rx 1 0x688 s 8 13 00 13 00 13 00 13 00 
19:33:21:9769 Rx 1 0x688 s 8 13 00 13 00 13 00 13 00 
19:33:21:9771 Rx 1 0x688 s 8 13 00 13 00 13 00 13 00 
19:33:21:9773 Rx 1 0x689 s 8 13 00 13 00 13 00 13 00 
19:33:21:9775 Rx 1 0x689 s 8 13 00 13 00 13 00 13 00 
19:33:21:9778 Rx 1 0x689 s 8 13 00 13 00 13 00 13 00 
19:33:21:9781 Rx 1 0x689 s 8 13 00 13 00 13 00 13 00 
19:33:21:9783 Rx 1 0x68A s 8 13 00 13 00 13 00 13 00 
19:33:21:9785 Rx 1 0x68A s 8 13 00 13 00 13 00 13 00 
19:33:21:9787 Rx 1 0x68A s 8 13 00 13 00 13 00 13 00 
19:33:21:9790 Rx 1 0x68A s 8 13 00 13 00 13 00 13 00 
19:33:21:9793 Rx 1 0x68B s 8 13 00 13 00 13 00 13 00 
19:33:21:9795 Rx 1 0x68B s 8 13 00 13 00 13 00 13 00 
19:33:21:9797 Rx 1 0x68B s 8 13 00 13 00 13 00 13 00 
19:33:21:9799 Rx 1 0x68B s 8 13 00 13 00 13 00 13 00 
19:33:21:9802 Rx 1 0x68C s 8 13 00 13 00 13 00 13 00 
19:33:21:9804 Rx 1 0x68C s 8 13 00 13 00 13 00 13 00 
19:33:21:9807 Rx 1 0x68C s 8 13 00 13 00 13 00 13 00 
19:33:21:9809 Rx 1 0x68C s 8 13 00 13 00 13 00 13 00 
19:33:21:9812 Rx 1 0x68D s 8 13 00 13 00 13 00 13 00 
19:33:21:9814 Rx 1 0x68D s 8 13 00 13 00 13 00 13 00 
19:33:21:9816 Rx 1 0x68D s 8 13 00 13 00 13 00 13 00 
19:33:21:9819 Rx 1 0x68D s 8 13 00 13 00 13 00 13 00 
19:33:21:9821 Rx 1 0x68E s 8 12 00 13 00 13 00 13 00 
19:33:21:9824 Rx 1 0x68E s 8 12 00 13 00 13 00 13 00 
19:33:21:9826 Rx 1 0x68E s 8 12 00 13 00 13 00 13 00 
19:33:21:9828 Rx 1 0x68E s 8 12 00 13 00 13 00 13 00 
19:33:21:9831 Rx 1 0x68F s 8 13 00 13 00 13 00 13 00 
19:33:21:9833 Rx 1 0x68F s 8 13 00 13 00 13 00 13 00 
19:33:21:9836 Rx 1 0x68F s 8 13 00 13 00 13 00 13 00 
19:33:21:9838 Rx 1 0x68F s 8 13 00 13 00 13 00 13 00 
19:33:21:9840 Rx 1 0x690 s 8 13 00 13 00 13 00 13 00 
19:33:21:9843 Rx 1 0x690 s 8 13 00 13 00 13 00 13 00 
19:33:21:9845 Rx 1 0x690 s 8 13 00 13 00 13 00 13 00 
19:33:21:9848 Rx 1 0x690 s 8 13 00 13 00 13 00 13 00 
19:33:21:9850 Rx 1 0x691 s 8 13 00 12 00 13 00 13 00 
19:33:21:9852 Rx 1 0x691 s 8 13 00 12 00 13 00 13 00 
19:33:21:9855 Rx 1 0x691 s 8 13 00 12 00 13 00 13 00 
19:33:21:9857 Rx 1 0x691 s 8 13 00 12 00 13 00 13 00 
19:33:21:9860 Rx 1 0x692 s 8 13 00 13 00 13 00 13 00 
19:33:21:9862 Rx 1 0x692 s 8 13 00 13 00 13 00 13 00 
19:33:21:9864 Rx 1 0x692 s 8 13 00 13 00 13 00 13 00 
19:33:21:9867 Rx 1 0x692 s 8 13 00 13 00 13 00 13 00 
19:33:21:9869 Rx 1 0x693 s 8 13 00 13 00 13 00 13 00 
19:33:21:9871 Rx 1 0x693 s 8 13 00 13 00 13 00 13 00 
19:33:21:9874 Rx 1 0x693 s 8 13 00 13 00 13 00 13 00 
19:33:21:9876 Rx 1 0x693 s 8 13 00 13 00 13 00 13 00 
19:33:21:9879 Rx 1 0x694 s 8 13 00 13 00 13 00 13 00 
19:33:21:9881 Rx 1 0x694 s 8 13 00 13 00 13 00 13 00 
19:33:21:9883 Rx 1 0x694 s 8 13 00 13 00 13 00 13 00 
19:33:21:9886 Rx 1 0x694 s 8 13 00 13 00 13 00 13 00 
19:33:21:9888 Rx 1 0x695 s 8 13 00 13 00 13 00 13 00 
19:33:21:9891 Rx 1 0x695 s 8 13 00 13 00 13 00 13 00 
19:33:21:9893 Rx 1 0x695 s 8 13 00 13 00 13 00 13 00 
19:33:21:9895 Rx 1 0x695 s 8 13 00 13 00 13 00 13 00 
19:33:21:9898 Rx 1 0x696 s 8 13 00 13 00 13 00 13 00 
19:33:21:9900 Rx 1 0x696 s 8 13 00 13 00 13 00 13 00 
19:33:21:9903 Rx 1 0x696 s 8 13 00 13 00 13 00 13 00 
19:33:21:9905 Rx 1 0x696 s 8 13 00 13 00 13 00 13 00 
19:33:21:9907 Rx 1 0x697 s 8 13 00 13 00 13 00 13 00 
19:33:21:9910 Rx 1 0x697 s 8 13 00 13 00 13 00 13 00 
19:33:21:9912 Rx 1 0x697 s 8 13 00 13 00 13 00 13 00 
19:33:21:9915 Rx 1 0x601 s 8 11 5D 63 A0 92 00 00 00 
19:33:21:9917 Rx 1 0x697 s 8 13 00 13 00 13 00 13 00 
19:33:22:0235 Rx 1 0x600 s 8 00 00 00 A7 00 00 00 00 
19:33:22:0237 Rx 1 0x622 s 8 D2 97 B3 91 13 00 13 00 
19:33:22:0239 Rx 1 0x630 s 8 CB 94 2A 95 F3 94 1F 95 
19:33:22:0241 Rx 1 0x630 s 8 CB 94 2A 95 F3 94 1F 95 
19:33:22:0244 Rx 1 0x630 s 8 CB 94 2A 95 F3 94 1F 95 
19:33:22:0246 Rx 1 0x630 s 8 CB 94 2A 95 F3 94 1F 95 
19:33:22:0249 Rx 1 0x631 s 8 FD 94 11 95 EE 94 21 95 
19:33:22:0251 Rx 1 0x631 s 8 FD 94 11 95 EE 94 21 95 
19:33:22:0253 Rx 1 0x631 s 8 FD 94 11 95 EE 94 21 95 
19:33:22:0255 Rx 1 0x631 s 8 FD 94 11 95 EE 94 21 95 
19:33:22:0258 Rx 1 0x632 s 8 24 95 08 95 0B 95 DD 94 
19:33:22:0260 Rx 1 0x632 s 8 24 95 08 95 0B 95 DD 94 
19:33:22:0262 Rx 1 0x632 s 8 24 95 08 95 0B 95 DD 94 
19:33:22:0264 Rx 1 0x632 s 8 24 95 08 95 0B 95 DD 94 
19:33:22:0267 Rx 1 0x633 s 8 E3 93 C6 94 C3 94 C4 94 
19:33:22:0269 Rx 1 0x633 s 8 E3 93 C6 94 C3 94 C4 94 
19:33:22:0271 Rx 1 0x633 s 8 E3 93 C6 94 C3 94 C4 94 
19:33:22:0273 Rx 1 0x633 s 8 E3 93 C6 94 C3 94 C4 94 
19:33:22:0276 Rx 1 0x634 s 8 C3 94 AF 94 B0 94 AC 94 
19:33:22:0278 Rx 1 0x634 s 8 C3 94 AF 94 B0 94 AC 94 
19:33:22:0280 Rx 1 0x634 s 8 C3 94 AF 94 B0 94 AC 94 
19:33:22:0282 Rx 1 0x634 s 8 C3 94 AF 94 B0 94 AC 94 
19:33:22:0284 Rx 1 0x635 s 8 BD 94 BE 94 BA 94 FE 93 
19:33:22:0287 Rx 1 0x635 s 8 BD 94 BE 94 BA 94 FE 93 
19:33:22:0289 Rx 1 0x635 s 8 BD 94 BE 94 BA 94 FE 93 
19:33:22:0291 Rx 1 0x635 s 8 BD 94 BE 94 BA 94 FE 93 
19:33:22:0293 Rx 1 0x636 s 8 1A 95 36 95 46 95 49 95 
19:33:22:0296 Rx 1 0x636 s 8 1A 95 36 95 46 95 49 95 
19:33:22:0298 Rx 1 0x636 s 8 1A 95 36 95 46 95 49 95 
19:33:22:0300 Rx 1 0x636 s 8 1A 95 36 95 46 95 49 95 
19:33:22:0302 Rx 1 0x637 s 8 3C 95 33 95 34 95 3C 95 
19:33:22:0305 Rx 1 0x637 s 8 3C 95 33 95 34 95 3C 95 
19:33:22:0307 Rx 1 0x637 s 8 3C 95 33 95 34 95 3C 95 
19:33:22:0310 Rx 1 0x637 s 8 3C 95 33 95 34 95 3C 95 
19:33:22:0312 Rx 1 0x638 s 8 46 95 4A 95 49 95 30 95 
19:33:22:0314 Rx 1 0x638 s 8 46 95 4A 95 49 95 30 95 
19:33:22:0316 Rx 1 0x638 s 8 46 95 4A 95 49 95 30 95 
19:33:22:0319 Rx 1 0x638 s 8 46 95 4A 95 49 95 30 95 
19:33:22:0321 Rx 1 0x639 s 8 61 95 4C 95 45 95 34 95 
19:33:22:0323 Rx 1 0x639 s 8 61 95 4C 95 45 95 34 95 
19:33:22:0325 Rx 1 0x639 s 8 61 95 4C 95 45 95 34 95 
19:33:22:0328 Rx 1 0x639 s 8 61 95 4C 95 45 95 34 95 
19:33:22:0330 Rx 1 0x63A s 8 35 95 33 95 2D 95 0B 95 
19:33:22:0332 Rx 1 0x63A s 8 35 95 33 95 2D 95 0B 95 
19:33:22:0334 Rx 1 0x63A s 8 35 95 33 95 2D 95 0B 95 
19:33:22:0337 Rx 1 0x63A s 8 35 95 33 95 2D 95 0B 95 
19:33:22:0339 Rx 1 0x63B s 8 41 95 4D 95 1E 95 04 95 
19:33:22:0341 Rx 1 0x63B s 8 41 95 4D 95 1E 95 04 95 
19:33:22:0343 Rx 1 0x63B s 8 41 95 4D 95 1E 95 04 95 
19:33:22:0345 Rx 1 0x63B s 8 41 95 4D 95 1E 95 04 95 
19:33:22:0348 Rx 1 0x63C s 8 F7 94 41 95 0E 95 12 95 
19:33:22:0350 Rx 1 0x63C s 8 F7 94 41 95 0E 95 12 95 
19:33:22:0352 Rx 1 0x63C s 8 F7 94 41 95 0E 95 12 95 
19:33:22:0354 Rx 1 0x63C s 8 F7 94 41 95 0E 95 12 95 
19:33:22:0357 Rx 1 0x63D s 8 CD 94 0A 95 21 95 33 95 
19:33:22:0359 Rx 1 0x63D s 8 CD 94 0A 95 21 95 33 95 
19:33:22:0361 Rx 1 0x63D s 8 CD 94 0A 95 21 95 33 95 
19:33:22:0363 Rx 1 0x63D s 8 CD 94 0A 95 21 95 33 95 
19:33:22:0366 Rx 1 0x63E s 8 2A 95 B3 91 09 95 FD 94 
19:33:22:0368 Rx 1 0x63E s 8 2A 95 B3 91 09 95 FD 94 
19:33:22:0370 Rx 1 0x63E s 8 2A 95 B3 91 09 95 FD 94 
19:33:22:0373 Rx 1 0x63E s 8 2A 95 B3 91 09 95 FD 94 
19:33:22:0375 Rx 1 0x63F s 8 1F 95 5B 95 31 95 62 95 
19:33:22:0377 Rx 1 0x63F s 8 1F 95 5B 95 31 95 62 95 
19:33:22:0380 Rx 1 0x63F s 8 1F 95 5B 95 31 95 62 95 
19:33:22:0382 Rx 1 0x63F s 8 1F 95 5B 95 31 95 62 95 
19:33:22:0384 Rx 1 0x640 s 8 5A 95 48 95 48 95 36 95 
19:33:22:0386 Rx 1 0x640 s 8 5A 95 48 95 48 95 36 95 
19:33:22:0389 Rx 1 0x640 s 8 5A 95 48 95 48 95 36 95 
19:33:22:0391 Rx 1 0x640 s 8 5A 95 48 95 48 95 36 95 
19:33:22:0393 Rx 1 0x641 s 8 19 95 57 95 57 95 23 95 
19:33:22:0395 Rx 1 0x641 s 8 19 95 57 95 57 95 23 95 
19:33:22:0398 Rx 1 0x641 s 8 19 95 57 95 57 95 23 95 
19:33:22:0400 Rx 1 0x641 s 8 19 95 57 95 57 95 23 95 
19:33:22:0402 Rx 1 0x642 s 8 75 96 6F 96 7E 95 A9 95 
19:33:22:0404 Rx 1 0x642 s 8 75 96 6F 96 7E 95 A9 95 
19:33:22:0407 Rx 1 0x642 s 8 75 96 6F 96 7E 95 A9 95 
19:33:22:0409 Rx 1 0x642 s 8 75 96 6F 96 7E 95 A9 95 
19:33:22:0411 Rx 1 0x643 s 8 B6 97 D2 97 D2 97 B7 96 
19:33:22:0413 Rx 1 0x643 s 8 B6 97 D2 97 D2 97 B7 96 
19:33:22:0416 Rx 1 0x643 s 8 B6 97 D2 97 D2 97 B7 96 
19:33:22:0418 Rx 1 0x643 s 8 B6 97 D2 97 D2 97 B7 96 
19:33:22:0420 Rx 1 0x644 s 8 71 97 73 97 0E 97 33 97 
19:33:22:0422 Rx 1 0x644 s 8 71 97 73 97 0E 97 33 97 
19:33:22:0425 Rx 1 0x644 s 8 71 97 73 97 0E 97 33 97 
19:33:22:0427 Rx 1 0x644 s 8 71 97 73 97 0E 97 33 97 
19:33:22:0429 Rx 1 0x645 s 8 49 95 37 95 07 95 5D 95 
19:33:22:0432 Rx 1 0x645 s 8 49 95 37 95 07 95 5D 95 
19:33:22:0434 Rx 1 0x645 s 8 49 95 37 95 07 95 5D 95 
19:33:22:0436 Rx 1 0x645 s 8 49 95 37 95 07 95 5D 95 
19:33:22:0438 Rx 1 0x646 s 8 E0 94 5C 95 4B 95 68 95 
19:33:22:0441 Rx 1 0x646 s 8 E0 94 5C 95 4B 95 68 95 
19:33:22:0443 Rx 1 0x646 s 8 E0 94 5C 95 4B 95 68 95 
19:33:22:0445 Rx 1 0x646 s 8 E0 94 5C 95 4B 95 68 95 
19:33:22:0447 Rx 1 0x647 s 8 71 95 6F 95 70 95 3A 95 
19:33:22:0450 Rx 1 0x647 s 8 71 95 6F 95 70 95 3A 95 
19:33:22:0452 Rx 1 0x647 s 8 71 95 6F 95 70 95 3A 95 
19:33:22:0454 Rx 1 0x647 s 8 71 95 6F 95 70 95 3A 95 
19:33:22:0456 Rx 1 0x680 s 8 13 00 13 00 13 00 13 00 
19:33:22:0459 Rx 1 0x680 s 8 13 00 13 00 13 00 13 00 
19:33:22:0461 Rx 1 0x680 s 8 13 00 13 00 13 00 13 00 
19:33:22:0464 Rx 1 0x680 s 8 13 00 13 00 13 00 13 00 
19:33:22:0466 Rx 1 0x681 s 8 13 00 13 00 13 00 13 00 
19:33:22:0468 Rx 1 0x681 s 8 13 00 13 00 13 00 13 00 
19:33:22:0471 Rx 1 0x681 s 8 13 00 13 00 13 00 13 00 
19:33:22:0473 Rx 1 0x681 s 8 13 00 13 00 13 00 13 00 
19:33:22:0476 Rx 1 0x682 s 8 13 00 13 00 13 00 13 00 
19:33:22:0478 Rx 1 0x682 s 8 13 00 13 00 13 00 13 00 
19:33:22:0480 Rx 1 0x682 s 8 13 00 13 00 13 00 13 00 
19:33:22:0483 Rx 1 0x682 s 8 13 00 13 00 13 00 13 00 
19:33:22:0485 Rx 1 0x683 s 8 13 00 13 00 13 00 13 00 
19:33:22:0488 Rx 1 0x683 s 8 13 00 13 00 13 00 13 00 
19:33:22:0490 Rx 1 0x683 s 8 13 00 13 00 13 00 13 00 
19:33:22:0492 Rx 1 0x683 s 8 13 00 13 00 13 00 13 00 
19:33:22:0495 Rx 1 0x684 s 8 13 00 13 00 13 00 13 00 
19:33:22:0497 Rx 1 0x684 s 8 13 00 13 00 13 00 13 00 
19:33:22:0500 Rx 1 0x684 s 8 13 00 13 00 13 00 13 00 
19:33:22:0502 Rx 1 0x684 s 8 13 00 13 00 13 00 13 00 
19:33:22:0505 Rx 1 0x685 s 8 13 00 13 00 13 00 13 00 
19:33:22:0507 Rx 1 0x685 s 8 13 00 13 00 13 00 13 00 
19:33:22:0509 Rx 1 0x685 s 8 13 00 13 00 13 00 13 00 
19:33:22:0512 Rx 1 0x685 s 8 13 00 13 00 13 00 13 00 
19:33:22:0514 Rx 1 0x686 s 8 13 00 13 00 13 00 13 00 
19:33:22:0517 Rx 1 0x686 s 8 13 00 13 00 13 00 13 00 
19:33:22:0519 Rx 1 0x686 s 8 13 00 13 00 13 00 13 00 
19:33:22:0521 Rx 1 0x686 s 8 13 00 13 00 13 00 13 00 
19:33:22:0524 Rx 1 0x687 s 8 13 00 13 00 13 00 13 00 
19:33:22:0526 Rx 1 0x687 s 8 13 00 13 00 13 00 13 00 
19:33:22:0529 Rx 1 0x687 s 8 13 00 13 00 13 00 13 00 
19:33:22:0531 Rx 1 0x687 s 8 13 00 13 00 13 00 13 00 
19:33:22:0534 Rx 1 0x688 s 8 13 00 13 00 13 00 13 00 
19:33:22:0536 Rx 1 0x688 s 8 13 00 13 00 13 00 13 00 
19:33:22:0538 Rx 1 0x688 s 8 13 00 13 00 13 00 13 00 
19:33:22:0541 Rx 1 0x688 s 8 13 00 13 00 13 00 13 00 
19:33:22:0543 Rx 1 0x689 s 8 13 00 13 00 13 00 13 00 
19:33:22:0546 Rx 1 0x689 s 8 13 00 13 00 13 00 13 00 
19:33:22:0548 Rx 1 0x689 s 8 13 00 13 00 13 00 13 00 
19:33:22:0550 Rx 1 0x689 s 8 13 00 13 00 13 00 13 00 
19:33:22:0552 Rx 1 0x68A s 8 13 00 13 00 13 00 13 00 
19:33:22:0555 Rx 1 0x68A s 8 13 00 13 00 13 00 13 00 
19:33:22:0558 Rx 1 0x68A s 8 13 00 13 00 13 00 13 00 
19:33:22:0560 Rx 1 0x68A s 8 13 00 13 00 13 00 13 00 
19:33:22:0562 Rx 1 0x68B s 8 13 00 13 00 13 00 13 00 
19:33:22:0565 Rx 1 0x68B s 8 13 00 13 00 13 00 13 00 
19:33:22:0567 Rx 1 0x68B s 8 13 00 13 00 13 00 13 00 
19:33:22:0569 Rx 1 0x68B s 8 13 00 13 00 13 00 13 00 
19:33:22:0572 Rx 1 0x68C s 8 13 00 13 00 13 00 13 00 
19:33:22:0574 Rx 1 0x68C s 8 13 00 13 00 13 00 13 00 
19:33:22:0577 Rx 1 0x68C s 8 13 00 13 00 13 00 13 00 
19:33:22:0579 Rx 1 0x68C s 8 13 00 13 00 13 00 13 00 
19:33:22:0581 Rx 1 0x68D s 8 13 00 13 00 13 00 13 00 
19:33:22:0584 Rx 1 0x68D s 8 13 00 13 00 13 00 13 00 
19:33:22:0586 Rx 1 0x68D s 8 13 00 13 00 13 00 13 00 
19:33:22:0589 Rx 1 0x68D s 8 13 00 13 00 13 00 13 00 
19:33:22:0591 Rx 1 0x68E s 8 12 00 13 00 13 00 13 00 
19:33:22:0593 Rx 1 0x68E s 8 12 00 13 00 13 00 13 00 
19:33:22:0596 Rx 1 0x68E s 8 12 00 13 00 13 00 13 00 
19:33:22:0598 Rx 1 0x68E s 8 12 00 13 00 13 00 13 00 
19:33:22:0601 Rx 1 0x68F s 8 13 00 13 00 13 00 13 00 
19:33:22:0603 Rx 1 0x68F s 8 13 00 13 00 13 00 13 00 
19:33:22:0605 Rx 1 0x68F s 8 13 00 13 00 13 00 13 00 
19:33:22:0608 Rx 1 0x68F s 8 13 00 13 00 13 00 13 00 
19:33:22:0610 Rx 1 0x690 s 8 13 00 13 00 13 00 13 00 
19:33:22:0613 Rx 1 0x690 s 8 13 00 13 00 13 00 13 00 
19:33:22:0615 Rx 1 0x690 s 8 13 00 13 00 13 00 13 00 
19:33:22:0617 Rx 1 0x690 s 8 13 00 13 00 13 00 13 00 
19:33:22:0620 Rx 1 0x691 s 8 13 00 12 00 13 00 13 00 
19:33:22:0622 Rx 1 0x691 s 8 13 00 12 00 13 00 13 00 
19:33:22:0625 Rx 1 0x691 s 8 13 00 12 00 13 00 13 00 
19:33:22:0627 Rx 1 0x691 s 8 13 00 12 00 13 00 13 00 
19:33:22:0629 Rx 1 0x692 s 8 13 00 13 00 13 00 13 00 
19:33:22:0632 Rx 1 0x692 s 8 13 00 13 00 13 00 13 00 
19:33:22:0634 Rx 1 0x692 s 8 13 00 13 00 13 00 13 00 
19:33:22:0636 Rx 1 0x692 s 8 13 00 13 00 13 00 13 00 
19:33:22:0639 Rx 1 0x693 s 8 13 00 13 00 13 00 13 00 
19:33:22:0641 Rx 1 0x693 s 8 13 00 13 00 13 00 13 00 
19:33:22:0644 Rx 1 0x693 s 8 13 00 13 00 13 00 13 00 
19:33:22:0646 Rx 1 0x693 s 8 13 00 13 00 13 00 13 00 
19:33:22:0648 Rx 1 0x694 s 8 13 00 13 00 13 00 13 00 
19:33:22:0651 Rx 1 0x694 s 8 13 00 13 00 13 00 13 00 
19:33:22:0653 Rx 1 0x694 s 8 13 00 13 00 13 00 13 00 
19:33:22:0656 Rx 1 0x694 s 8 13 00 13 00 13 00 13 00 
19:33:22:0658 Rx 1 0x695 s 8 13 00 13 00 13 00 13 00 
19:33:22:0660 Rx 1 0x695 s 8 13 00 13 00 13 00 13 00 
19:33:22:0663 Rx 1 0x695 s 8 13 00 13 00 13 00 13 00 
19:33:22:0665 Rx 1 0x695 s 8 13 00 13 00 13 00 13 00 
19:33:22:0668 Rx 1 0x696 s 8 13 00 13 00 13 00 13 00 
19:33:22:0670 Rx 1 0x696 s 8 13 00 13 00 13 00 13 00 
19:33:22:0672 Rx 1 0x696 s 8 13 00 13 00 13 00 13 00 
19:33:22:0675 Rx 1 0x696 s 8 13 00 13 00 13 00 13 00 
19:33:22:0677 Rx 1 0x697 s 8 13 00 13 00 13 00 13 00 
19:33:22:0680 Rx 1 0x697 s 8 13 00 13 00 13 00 13 00 
19:33:22:0682 Rx 1 0x697 s 8 13 00 13 00 13 00 13 00 
19:33:22:0684 Rx 1 0x601 s 8 11 5D 63 C1 8F 00 00 00 
19:33:22:0687 Rx 1 0x697 s 8 13 00 13 00 13 00 13 00 
19:33:22:1485 Rx 1 0x600 s 8 00 00 00 A7 00 00 00 00 
19:33:22:1487 Rx 1 0x622 s 8 D8 97 B1 91 13 00 13 00 
19:33:22:1489 Rx 1 0x630 s 8 CB 94 2A 95 F0 94 1D 95 
19:33:22:1491 Rx 1 0x630 s 8 CB 94 2A 95 F0 94 1D 95 
19:33:22:1494 Rx 1 0x630 s 8 CB 94 2A 95 F0 94 1D 95 
19:33:22:1496 Rx 1 0x630 s 8 CB 94 2A 95 F0 94 1D 95 
19:33:22:1498 Rx 1 0x631 s 8 FF 94 11 95 ED 94 1F 95 
19:33:22:1501 Rx 1 0x631 s 8 FF 94 11 95 ED 94 1F 95 
19:33:22:1503 Rx 1 0x631 s 8 FF 94 11 95 ED 94 1F 95 
19:33:22:1506 Rx 1 0x631 s 8 FF 94 11 95 ED 94 1F 95 
19:33:22:1508 Rx 1 0x632 s 8 23 95 0E 95 0E 95 DE 94 
19:33:22:1510 Rx 1 0x632 s 8 23 95 0E 95 0E 95 DE 94 
19:33:22:1512 Rx 1 0x632 s 8 23 95 0E 95 0E 95 DE 94 
19:33:22:1515 Rx 1 0x632 s 8 23 95 0E 95 0E 95 DE 94 
19:33:22:1517 Rx 1 0x633 s 8 67 94 C6 94 C2 94 C5 94 
19:33:22:1519 Rx 1 0x633 s 8 67 94 C6 94 C2 94 C5 94 
19:33:22:1521 Rx 1 0x633 s 8 67 94 C6 94 C2 94 C5 94 
19:33:22:1523 Rx 1 0x633 s 8 67 94 C6 94 C2 94 C5 94 
19:33:22:1526 Rx 1 0x634 s 8 C4 94 B2 94 B1 94 AC 94 
19:33:22:1528 Rx 1 0x634 s 8 C4 94 B2 94 B1 94 AC 94 
19:33:22:1530 Rx 1 0x634 s 8 C4 94 B2 94 B1 94 AC 94 
19:33:22:1532 Rx 1 0x634 s 8 C4 94 B2 94 B1 94 AC 94 
19:33:22:1535 Rx 1 0x635 s 8 BD 94 BF 94 BB 94 78 94 
19:33:22:1537 Rx 1 0x635 s 8 BD 94 BF 94 BB 94 78 94 
19:33:22:1539 Rx 1 0x635 s 8 BD 94 BF 94 BB 94 78 94 
19:33:22:1541 Rx 1 0x635 s 8 BD 94 BF 94 BB 94 78 94 
19:33:22:1544 Rx 1 0x636 s 8 19 95 35 95 48 95 4B 95 
19:33:22:1546 Rx 1 0x636 s 8 19 95 35 95 48 95 4B 95 
19:33:22:1548 Rx 1 0x636 s 8 19 95 35 95 48 95 4B 95 
19:33:22:1550 Rx 1 0x636 s 8 19 95 35 95 48 95 4B 95 
19:33:22:1553 Rx 1 0x637 s 8 40 95 2D 95 36 95 41 95 
19:33:22:1555 Rx 1 0x637 s 8 40 95 2D 95 36 95 41 95 
19:33:22:1557 Rx 1 0x637 s 8 40 95 2D 95 36 95 41 95 
19:33:22:1559 Rx 1 0x637 s 8 40 95 2D 95 36 95 41 95 
19:33:22:1562 Rx 1 0x638 s 8 49 95 4C 95 45 95 2E 95 
19:33:22:1564 Rx 1 0x638 s 8 49 95 4C 95 45 95 2E 95 
19:33:22:1566 Rx 1 0x638 s 8 49 95 4C 95 45 95 2E 95 
19:33:22:1568 Rx 1 0x638 s 8 49 95 4C 95 45 95 2E 95 
19:33:22:1571 Rx 1 0x639 s 8 61 95 4E 95 48 95 34 95 
19:33:22:1573 Rx 1 0x639 s 8 61 95 4E 95 48 95 34 95 
19:33:22:1575 Rx 1 0x639 s 8 61 95 4E 95 48 95 34 95 
19:33:22:1577 Rx 1 0x639 s 8 61 95 4E 95 48 95 34 95 
19:33:22:1579 Rx 1 0x63A s 8 39 95 2E 95 2D 95 0C 95 
19:33:22:1582 Rx 1 0x63A s 8 39 95 2E 95 2D 95 0C 95 
19:33:22:1584 Rx 1 0x63A s 8 39 95 2E 95 2D 95 0C 95 
19:33:22:1586 Rx 1 0x63A s 8 39 95 2E 95 2D 95 0C 95 
19:33:22:1589 Rx 1 0x63B s 8 42 95 46 95 1B 95 03 95 
19:33:22:1591 Rx 1 0x63B s 8 42 95 46 95 1B 95 03 95 
19:33:22:1593 Rx 1 0x63B s 8 42 95 46 95 1B 95 03 95 
19:33:22:1596 Rx 1 0x63B s 8 42 95 46 95 1B 95 03 95 
19:33:22:1598 Rx 1 0x63C s 8 F6 94 42 95 10 95 11 95 
19:33:22:1600 Rx 1 0x63C s 8 F6 94 42 95 10 95 11 95 
19:33:22:1602 Rx 1 0x63C s 8 F6 94 42 95 10 95 11 95 
19:33:22:1605 Rx 1 0x63C s 8 F6 94 42 95 10 95 11 95 
19:33:22:1607 Rx 1 0x63D s 8 CC 94 0D 95 21 95 34 95 
19:33:22:1609 Rx 1 0x63D s 8 CC 94 0D 95 21 95 34 95 
19:33:22:1611 Rx 1 0x63D s 8 CC 94 0D 95 21 95 34 95 
19:33:22:1614 Rx 1 0x63D s 8 CC 94 0D 95 21 95 34 95 
19:33:22:1616 Rx 1 0x63E s 8 2B 95 B1 91 0D 95 FD 94 
19:33:22:1618 Rx 1 0x63E s 8 2B 95 B1 91 0D 95 FD 94 
19:33:22:1620 Rx 1 0x63E s 8 2B 95 B1 91 0D 95 FD 94 
19:33:22:1622 Rx 1 0x63E s 8 2B 95 B1 91 0D 95 FD 94 
19:33:22:1625 Rx 1 0x63F s 8 1F 95 5B 95 31 95 61 95 
19:33:22:1627 Rx 1 0x63F s 8 1F 95 5B 95 31 95 61 95 
19:33:22:1629 Rx 1 0x63F s 8 1F 95 5B 95 31 95 61 95 
19:33:22:1632 Rx 1 0x63F s 8 1F 95 5B 95 31 95 61 95 
19:33:22:1634 Rx 1 0x640 s 8 5A 95 40 95 48 95 35 95 
19:33:22:1636 Rx 1 0x640 s 8 5A 95 40 95 48 95 35 95 
19:33:22:1639 Rx 1 0x640 s 8 5A 95 40 95 48 95 35 95 
19:33:22:1641 Rx 1 0x640 s 8 5A 95 40 95 48 95 35 95 
19:33:22:1643 Rx 1 0x641 s 8 17 95 5A 95 56 95 22 95 
19:33:22:1646 Rx 1 0x641 s 8 17 95 5A 95 56 95 22 95 
19:33:22:1648 Rx 1 0x641 s 8 17 95 5A 95 56 95 22 95 
19:33:22:1650 Rx 1 0x641 s 8 17 95 5A 95 56 95 22 95 
19:33:22:1652 Rx 1 0x642 s 8 73 96 6E 96 79 95 AA 95 
19:33:22:1654 Rx 1 0x642 s 8 73 96 6E 96 79 95 AA 95 
19:33:22:1657 Rx 1 0x642 s 8 73 96 6E 96 79 95 AA 95 
19:33:22:1659 Rx 1 0x642 s 8 73 96 6E 96 79 95 AA 95 
19:33:22:1661 Rx 1 0x643 s 8 BA 97 D8 97 D3 97 B6 96 
19:33:22:1663 Rx 1 0x643 s 8 BA 97 D8 97 D3 97 B6 96 
19:33:22:1666 Rx 1 0x643 s 8 BA 97 D8 97 D3 97 B6 96 
19:33:22:1668 Rx 1 0x643 s 8 BA 97 D8 97 D3 97 B6 96 
19:33:22:1670 Rx 1 0x644 s 8 71 97 77 97 15 97 35 97 
19:33:22:1672 Rx 1 0x644 s 8 71 97 77 97 15 97 35 97 
19:33:22:1675 Rx 1 0x644 s 8 71 97 77 97 15 97 35 97 
19:33:22:1677 Rx 1 0x644 s 8 71 97 77 97 15 97 35 97 
19:33:22:1679 Rx 1 0x645 s 8 49 95 37 95 07 95 5D 95 
19:33:22:1681 Rx 1 0x645 s 8 49 95 37 95 07 95 5D 95 
19:33:22:1683 Rx 1 0x645 s 8 49 95 37 95 07 95 5D 95 
19:33:22:1686 Rx 1 0x645 s 8 49 95 37 95 07 95 5D 95 
19:33:22:1688 Rx 1 0x646 s 8 E0 94 5C 95 4D 95 6A 95 
19:33:22:1690 Rx 1 0x646 s 8 E0 94 5C 95 4D 95 6A 95 
19:33:22:1692 Rx 1 0x646 s 8 E0 94 5C 95 4D 95 6A 95 
19:33:22:1695 Rx 1 0x646 s 8 E0 94 5C 95 4D 95 6A 95 
19:33:22:1697 Rx 1 0x647 s 8 71 95 70 95 6E 95 39 95 
19:33:22:1699 Rx 1 0x647 s 8 71 95 70 95 6E 95 39 95 
19:33:22:1701 Rx 1 0x647 s 8 71 95 70 95 6E 95 39 95 
19:33:22:1704 Rx 1 0x647 s 8 71 95 70 95 6E 95 39 95 
19:33:22:1706 Rx 1 0x680 s 8 13 00 13 00 13 00 13 00 
19:33:22:1709 Rx 1 0x680 s 8 13 00 13 00 13 00 13 00 
19:33:22:1711 Rx 1 0x680 s 8 13 00 13 00 13 00 13 00 
19:33:22:1713 Rx 1 0x680 s 8 13 00 13 00 13 00 13 00 
19:33:22:1716 Rx 1 0x681 s 8 13 00 12 00 13 00 13 00 
19:33:22:1718 Rx 1 0x681 s 8 13 00 12 00 13 00 13 00 
19:33:22:1721 Rx 1 0x681 s 8 13 00 12 00 13 00 13 00 
19:33:22:1723 Rx 1 0x681 s 8 13 00 12 00 13 00 13 00 
19:33:22:1725 Rx 1 0x682 s 8 13 00 13 00 13 00 13 00 
19:33:22:1728 Rx 1 0x682 s 8 13 00 13 00 13 00 13 00 
19:33:22:1730 Rx 1 0x682 s 8 13 00 13 00 13 00 13 00 
19:33:22:1733 Rx 1 0x682 s 8 13 00 13 00 13 00 13 00 
19:33:22:1735 Rx 1 0x683 s 8 13 00 13 00 13 00 13 00 
19:33:22:1738 Rx 1 0x683 s 8 13 00 13 00 13 00 13 00 
19:33:22:1740 Rx 1 0x683 s 8 13 00 13 00 13 00 13 00 
19:33:22:1742 Rx 1 0x683 s 8 13 00 13 00 13 00 13 00 
19:33:22:1745 Rx 1 0x684 s 8 13 00 13 00 13 00 13 00 
19:33:22:1747 Rx 1 0x684 s 8 13 00 13 00 13 00 13 00 
19:33:22:1750 Rx 1 0x684 s 8 13 00 13 00 13 00 13 00 
19:33:22:1752 Rx 1 0x684 s 8 13 00 13 00 13 00 13 00 
19:33:22:1754 Rx 1 0x685 s 8 13 00 13 00 13 00 13 00 
19:33:22:1757 Rx 1 0x685 s 8 13 00 13 00 13 00 13 00 
19:33:22:1759 Rx 1 0x685 s 8 13 00 13 00 13 00 13 00 
19:33:22:1762 Rx 1 0x685 s 8 13 00 13 00 13 00 13 00 
19:33:22:1764 Rx 1 0x686 s 8 13 00 13 00 13 00 13 00 
19:33:22:1767 Rx 1 0x686 s 8 13 00 13 00 13 00 13 00 
19:33:22:1769 Rx 1 0x686 s 8 13 00 13 00 13 00 13 00 
19:33:22:1771 Rx 1 0x686 s 8 13 00 13 00 13 00 13 00 
19:33:22:1774 Rx 1 0x687 s 8 13 00 13 00 13 00 13 00 
19:33:22:1776 Rx 1 0x687 s 8 13 00 13 00 13 00 13 00 
19:33:22:1779 Rx 1 0x687 s 8 13 00 13 00 13 00 13 00 
19:33:22:1781 Rx 1 0x687 s 8 13 00 13 00 13 00 13 00 
19:33:22:1783 Rx 1 0x688 s 8 13 00 13 00 13 00 13 00 
19:33:22:1786 Rx 1 0x688 s 8 13 00 13 00 13 00 13 00 
19:33:22:1788 Rx 1 0x688 s 8 13 00 13 00 13 00 13 00 
19:33:22:1791 Rx 1 0x688 s 8 13 00 13 00 13 00 13 00 
19:33:22:1793 Rx 1 0x689 s 8 13 00 13 00 13 00 13 00 
19:33:22:1795 Rx 1 0x689 s 8 13 00 13 00 13 00 13 00 
19:33:22:1798 Rx 1 0x689 s 8 13 00 13 00 13 00 13 00 
19:33:22:1800 Rx 1 0x689 s 8 13 00 13 00 13 00 13 00 
19:33:22:1803 Rx 1 0x68A s 8 13 00 13 00 13 00 13 00 
19:33:22:1805 Rx 1 0x68A s 8 13 00 13 00 13 00 13 00 
19:33:22:1807 Rx 1 0x68A s 8 13 00 13 00 13 00 13 00 
19:33:22:1810 Rx 1 0x68A s 8 13 00 13 00 13 00 13 00 
19:33:22:1812 Rx 1 0x68B s 8 13 00 13 00 13 00 13 00 
19:33:22:1814 Rx 1 0x68B s 8 13 00 13 00 13 00 13 00 
19:33:22:1817 Rx 1 0x68B s 8 13 00 13 00 13 00 13 00 
19:33:22:1819 Rx 1 0x68B s 8 13 00 13 00 13 00 13 00 
19:33:22:1822 Rx 1 0x68C s 8 13 00 13 00 13 00 13 00 
19:33:22:1824 Rx 1 0x68C s 8 13 00 13 00 13 00 13 00 
19:33:22:1826 Rx 1 0x68C s 8 13 00 13 00 13 00 13 00 
19:33:22:1829 Rx 1 0x68C s 8 13 00 13 00 13 00 13 00 
19:33:22:1831 Rx 1 0x68D s 8 13 00 13 00 13 00 13 00 
19:33:22:1834 Rx 1 0x68D s 8 13 00 13 00 13 00 13 00 
19:33:22:1836 Rx 1 0x68D s 8 13 00 13 00 13 00 13 00 
19:33:22:1838 Rx 1 0x68D s 8 13 00 13 00 13 00 13 00 
19:33:22:1841 Rx 1 0x68E s 8 12 00 13 00 13 00 13 00 
19:33:22:1843 Rx 1 0x68E s 8 12 00 13 00 13 00 13 00 
19:33:22:1846 Rx 1 0x68E s 8 12 00 13 00 13 00 13 00 
19:33:22:1848 Rx 1 0x68E s 8 12 00 13 00 13 00 13 00 
19:33:22:1850 Rx 1 0x68F s 8 13 00 13 00 13 00 13 00 
19:33:22:1853 Rx 1 0x68F s 8 13 00 13 00 13 00 13 00 
19:33:22:1855 Rx 1 0x68F s 8 13 00 13 00 13 00 13 00 
19:33:22:1858 Rx 1 0x68F s 8 13 00 13 00 13 00 13 00 
19:33:22:1860 Rx 1 0x690 s 8 13 00 13 00 13 00 13 00 
19:33:22:1863 Rx 1 0x690 s 8 13 00 13 00 13 00 13 00 
19:33:22:1865 Rx 1 0x690 s 8 13 00 13 00 13 00 13 00 
19:33:22:1867 Rx 1 0x690 s 8 13 00 13 00 13 00 13 00 
19:33:22:1870 Rx 1 0x691 s 8 13 00 12 00 13 00 13 00 
19:33:22:1872 Rx 1 0x691 s 8 13 00 12 00 13 00 13 00 
19:33:22:1875 Rx 1 0x691 s 8 13 00 12 00 13 00 13 00 
19:33:22:1877 Rx 1 0x691 s 8 13 00 12 00 13 00 13 00 
19:33:22:1879 Rx 1 0x692 s 8 13 00 13 00 13 00 13 00 
19:33:22:1881 Rx 1 0x692 s 8 13 00 13 00 13 00 13 00 
19:33:22:1884 Rx 1 0x692 s 8 13 00 13 00 13 00 13 00 
19:33:22:1886 Rx 1 0x692 s 8 13 00 13 00 13 00 13 00 
19:33:22:1889 Rx 1 0x693 s 8 13 00 13 00 13 00 13 00 
19:33:22:1891 Rx 1 0x693 s 8 13 00 13 00 13 00 13 00 
19:33:22:1893 Rx 1 0x693 s 8 13 00 13 00 13 00 13 00 
19:33:22:1896 Rx 1 0x693 s 8 13 00 13 00 13 00 13 00 
19:33:22:1898 Rx 1 0x694 s 8 13 00 13 00 13 00 13 00 
19:33:22:1901 Rx 1 0x694 s 8 13 00 13 00 13 00 13 00 
19:33:22:1903 Rx 1 0x694 s 8 13 00 13 00 13 00 13 00 
19:33:22:1905 Rx 1 0x694 s 8 13 00 13 00 13 00 13 00 
19:33:22:1908 Rx 1 0x695 s 8 13 00 13 00 13 00 13 00 
19:33:22:1910 Rx 1 0x695 s 8 13 00 13 00 13 00 13 00 
19:33:22:1913 Rx 1 0x695 s 8 13 00 13 00 13 00 13 00 
19:33:22:1915 Rx 1 0x695 s 8 13 00 13 00 13 00 13 00 
19:33:22:1917 Rx 1 0x696 s 8 13 00 13 00 13 00 13 00 
19:33:22:1920 Rx 1 0x696 s 8 13 00 13 00 13 00 13 00 
19:33:22:1922 Rx 1 0x696 s 8 13 00 13 00 13 00 13 00 
19:33:22:1925 Rx 1 0x696 s 8 13 00 13 00 13 00 13 00 
19:33:22:1927 Rx 1 0x697 s 8 13 00 13 00 13 00 13 00 
19:33:22:1929 Rx 1 0x697 s 8 13 00 13 00 13 00 13 00 
19:33:22:1932 Rx 1 0x697 s 8 13 00 13 00 13 00 13 00 
19:33:22:1934 Rx 1 0x601 s 8 10 5D 63 37 92 00 00 00 
19:33:22:1937 Rx 1 0x697 s 8 13 00 13 00 13 00 13 00 
19:33:22:2254 Rx 1 0x600 s 8 00 00 00 A6 00 00 00 00 
19:33:22:2257 Rx 1 0x622 s 8 D4 97 B5 91 13 00 13 00 
19:33:22:2259 Rx 1 0x630 s 8 CC 94 2A 95 F2 94 1E 95 
19:33:22:2261 Rx 1 0x630 s 8 CC 94 2A 95 F2 94 1E 95 
19:33:22:2264 Rx 1 0x630 s 8 CC 94 2A 95 F2 94 1E 95 
19:33:22:2266 Rx 1 0x630 s 8 CC 94 2A 95 F2 94 1E 95 
19:33:22:2268 Rx 1 0x631 s 8 FA 94 11 95 EE 94 20 95 
19:33:22:2271 Rx 1 0x631 s 8 FA 94 11 95 EE 94 20 95 
19:33:22:2273 Rx 1 0x631 s 8 FA 94 11 95 EE 94 20 95 
19:33:22:2275 Rx 1 0x631 s 8 FA 94 11 95 EE 94 20 95 
19:33:22:2277 Rx 1 0x632 s 8 22 95 0F 95 0A 95 DE 94 
19:33:22:2280 Rx 1 0x632 s 8 22 95 0F 95 0A 95 DE 94 
19:33:22:2282 Rx 1 0x632 s 8 22 95 0F 95 0A 95 DE 94 
19:33:22:2284 Rx 1 0x632 s 8 22 95 0F 95 0A 95 DE 94 
19:33:22:2286 Rx 1 0x633 s 8 E3 93 C5 94 C2 94 C6 94 
19:33:22:2289 Rx 1 0x633 s 8 E3 93 C5 94 C2 94 C6 94 
19:33:22:2291 Rx 1 0x633 s 8 E3 93 C5 94 C2 94 C6 94 
19:33:22:2293 Rx 1 0x633 s 8 E3 93 C5 94 C2 94 C6 94 
19:33:22:2295 Rx 1 0x634 s 8 C4 94 B2 94 B0 94 AD 94 
19:33:22:2297 Rx 1 0x634 s 8 C4 94 B2 94 B0 94 AD 94 
19:33:22:2300 Rx 1 0x634 s 8 C4 94 B2 94 B0 94 AD 94 
19:33:22:2302 Rx 1 0x634 s 8 C4 94 B2 94 B0 94 AD 94 
19:33:22:2304 Rx 1 0x635 s 8 BE 94 C0 94 BA 94 FF 93 
19:33:22:2306 Rx 1 0x635 s 8 BE 94 C0 94 BA 94 FF 93 
19:33:22:2309 Rx 1 0x635 s 8 BE 94 C0 94 BA 94 FF 93 
19:33:22:2311 Rx 1 0x635 s 8 BE 94 C0 94 BA 94 FF 93 
19:33:22:2313 Rx 1 0x636 s 8 18 95 37 95 43 95 4B 95 
19:33:22:2315 Rx 1 0x636 s 8 18 95 37 95 43 95 4B 95 
19:33:22:2318 Rx 1 0x636 s 8 18 95 37 95 43 95 4B 95 
19:33:22:2320 Rx 1 0x636 s 8 18 95 37 95 43 95 4B 95 
19:33:22:2322 Rx 1 0x637 s 8 42 95 33 95 35 95 3F 95 
19:33:22:2325 Rx 1 0x637 s 8 42 95 33 95 35 95 3F 95 
19:33:22:2327 Rx 1 0x637 s 8 42 95 33 95 35 95 3F 95 
19:33:22:2329 Rx 1 0x637 s 8 42 95 33 95 35 95 3F 95 
19:33:22:2331 Rx 1 0x638 s 8 47 95 4C 95 47 95 2C 95 
19:33:22:2334 Rx 1 0x638 s 8 47 95 4C 95 47 95 2C 95 
19:33:22:2336 Rx 1 0x638 s 8 47 95 4C 95 47 95 2C 95 
19:33:22:2338 Rx 1 0x638 s 8 47 95 4C 95 47 95 2C 95 
19:33:22:2341 Rx 1 0x639 s 8 5F 95 4B 95 49 95 35 95 
19:33:22:2343 Rx 1 0x639 s 8 5F 95 4B 95 49 95 35 95 
19:33:22:2345 Rx 1 0x639 s 8 5F 95 4B 95 49 95 35 95 
19:33:22:2347 Rx 1 0x639 s 8 5F 95 4B 95 49 95 35 95 
19:33:22:2350 Rx 1 0x63A s 8 36 95 2E 95 2D 95 0C 95 
19:33:22:2352 Rx 1 0x63A s 8 36 95 2E 95 2D 95 0C 95 
19:33:22:2354 Rx 1 0x63A s 8 36 95 2E 95 2D 95 0C 95 
19:33:22:2356 Rx 1 0x63A s 8 36 95 2E 95 2D 95 0C 95 
19:33:22:2358 Rx 1 0x63B s 8 43 95 46 95 1D 95 FD 94 
19:33:22:2361 Rx 1 0x63B s 8 43 95 46 95 1D 95 FD 94 
19:33:22:2363 Rx 1 0x63B s 8 43 95 46 95 1D 95 FD 94 
19:33:22:2365 Rx 1 0x63B s 8 43 95 46 95 1D 95 FD 94 
19:33:22:2367 Rx 1 0x63C s 8 F6 94 42 95 10 95 12 95 
19:33:22:2370 Rx 1 0x63C s 8 F6 94 42 95 10 95 12 95 
19:33:22:2372 Rx 1 0x63C s 8 F6 94 42 95 10 95 12 95 
19:33:22:2374 Rx 1 0x63C s 8 F6 94 42 95 10 95 12 95 
19:33:22:2376 Rx 1 0x63D s 8 CC 94 0D 95 21 95 36 95 
19:33:22:2379 Rx 1 0x63D s 8 CC 94 0D 95 21 95 36 95 
19:33:22:2381 Rx 1 0x63D s 8 CC 94 0D 95 21 95 36 95 
19:33:22:2383 Rx 1 0x63D s 8 CC 94 0D 95 21 95 36 95 
19:33:22:2385 Rx 1 0x63E s 8 2C 95 B5 91 0A 95 FD 94 
19:33:22:2388 Rx 1 0x63E s 8 2C 95 B5 91 0A 95 FD 94 
19:33:22:2390 Rx 1 0x63E s 8 2C 95 B5 91 0A 95 FD 94 
19:33:22:2392 Rx 1 0x63E s 8 2C 95 B5 91 0A 95 FD 94 
19:33:22:2395 Rx 1 0x63F s 8 1F 95 59 95 2F 95 61 95 
19:33:22:2397 Rx 1 0x63F s 8 1F 95 59 95 2F 95 61 95 
19:33:22:2399 Rx 1 0x63F s 8 1F 95 59 95 2F 95 61 95 
19:33:22:2402 Rx 1 0x63F s 8 1F 95 59 95 2F 95 61 95 
19:33:22:2404 Rx 1 0x640 s 8 59 95 3F 95 46 95 3C 95 
19:33:22:2406 Rx 1 0x640 s 8 59 95 3F 95 46 95 3C 95 
19:33:22:2408 Rx 1 0x640 s 8 59 95 3F 95 46 95 3C 95 
19:33:22:2411 Rx 1 0x640 s 8 59 95 3F 95 46 95 3C 95 
19:33:22:2413 Rx 1 0x641 s 8 18 95 56 95 55 95 21 95 
19:33:22:2415 Rx 1 0x641 s 8 18 95 56 95 55 95 21 95 
19:33:22:2417 Rx 1 0x641 s 8 18 95 56 95 55 95 21 95 
19:33:22:2419 Rx 1 0x641 s 8 18 95 56 95 55 95 21 95 
19:33:22:2422 Rx 1 0x642 s 8 73 96 6E 96 7E 95 AB 95 
19:33:22:2424 Rx 1 0x642 s 8 73 96 6E 96 7E 95 AB 95 
19:33:22:2426 Rx 1 0x642 s 8 73 96 6E 96 7E 95 AB 95 
19:33:22:2428 Rx 1 0x642 s 8 73 96 6E 96 7E 95 AB 95 
19:33:22:2431 Rx 1 0x643 s 8 B4 97 D4 97 D3 97 B5 96 
19:33:22:2433 Rx 1 0x643 s 8 B4 97 D4 97 D3 97 B5 96 
19:33:22:2435 Rx 1 0x643 s 8 B4 97 D4 97 D3 97 B5 96 
19:33:22:2438 Rx 1 0x643 s 8 B4 97 D4 97 D3 97 B5 96 
19:33:22:2440 Rx 1 0x644 s 8 75 97 74 97 12 97 35 97 
19:33:22:2442 Rx 1 0x644 s 8 75 97 74 97 12 97 35 97 
19:33:22:2444 Rx 1 0x644 s 8 75 97 74 97 12 97 35 97 
19:33:22:2447 Rx 1 0x644 s 8 75 97 74 97 12 97 35 97 
19:33:22:2449 Rx 1 0x645 s 8 4A 95 37 95 06 95 5B 95 
19:33:22:2451 Rx 1 0x645 s 8 4A 95 37 95 06 95 5B 95 
19:33:22:2454 Rx 1 0x645 s 8 4A 95 37 95 06 95 5B 95 
19:33:22:2456 Rx 1 0x645 s 8 4A 95 37 95 06 95 5B 95 
19:33:22:2458 Rx 1 0x646 s 8 DF 94 5D 95 4B 95 69 95 
19:33:22:2460 Rx 1 0x646 s 8 DF 94 5D 95 4B 95 69 95 
19:33:22:2463 Rx 1 0x646 s 8 DF 94 5D 95 4B 95 69 95 
19:33:22:2465 Rx 1 0x646 s 8 DF 94 5D 95 4B 95 69 95 
19:33:22:2467 Rx 1 0x647 s 8 72 95 6F 95 6F 95 39 95 
19:33:22:2469 Rx 1 0x647 s 8 72 95 6F 95 6F 95 39 95 
19:33:22:2472 Rx 1 0x647 s 8 72 95 6F 95 6F 95 39 95 
19:33:22:2474 Rx 1 0x647 s 8 72 95 6F 95 6F 95 39 95 
19:33:22:2476 Rx 1 0x680 s 8 13 00 13 00 13 00 13 00 
19:33:22:2479 Rx 1 0x680 s 8 13 00 13 00 13 00 13 00 
19:33:22:2481 Rx 1 0x680 s 8 13 00 13 00 13 00 13 00 
19:33:22:2483 Rx 1 0x680 s 8 13 00 13 00 13 00 13 00 
19:33:22:2486 Rx 1 0x681 s 8 13 00 12 00 13 00 13 00 
19:33:22:2488 Rx 1 0x681 s 8 13 00 12 00 13 00 13 00 
19:33:22:2491 Rx 1 0x681 s 8 13 00 12 00 13 00 13 00 
19:33:22:2493 Rx 1 0x681 s 8 13 00 12 00 13 00 13 00 
19:33:22:2495 Rx 1 0x682 s 8 13 00 13 00 13 00 13 00 
19:33:22:2498 Rx 1 0x682 s 8 13 00 13 00 13 00 13 00 
19:33:22:2500 Rx 1 0x682 s 8 13 00 13 00 13 00 13 00 
19:33:22:2503 Rx 1 0x682 s 8 13 00 13 00 13 00 13 00 
19:33:22:2505 Rx 1 0x683 s 8 13 00 13 00 13 00 13 00 
19:33:22:2507 Rx 1 0x683 s 8 13 00 13 00 13 00 13 00 
19:33:22:2510 Rx 1 0x683 s 8 13 00 13 00 13 00 13 00 
19:33:22:2512 Rx 1 0x683 s 8 13 00 13 00 13 00 13 00 
19:33:22:2515 Rx 1 0x684 s 8 13 00 13 00 13 00 13 00 
19:33:22:2517 Rx 1 0x684 s 8 13 00 13 00 13 00 13 00 
19:33:22:2520 Rx 1 0x684 s 8 13 00 13 00 13 00 13 00 
19:33:22:2522 Rx 1 0x684 s 8 13 00 13 00 13 00 13 00 
19:33:22:2524 Rx 1 0x685 s 8 13 00 13 00 13 00 13 00 
19:33:22:2527 Rx 1 0x685 s 8 13 00 13 00 13 00 13 00 
19:33:22:2529 Rx 1 0x685 s 8 13 00 13 00 13 00 13 00 
19:33:22:2532 Rx 1 0x685 s 8 13 00 13 00 13 00 13 00 
19:33:22:2534 Rx 1 0x686 s 8 13 00 13 00 13 00 13 00 
19:33:22:2536 Rx 1 0x686 s 8 13 00 13 00 13 00 13 00 
19:33:22:2539 Rx 1 0x686 s 8 13 00 13 00 13 00 13 00 
19:33:22:2541 Rx 1 0x686 s 8 13 00 13 00 13 00 13 00 
19:33:22:2544 Rx 1 0x687 s 8 13 00 13 00 13 00 13 00 
19:33:22:2546 Rx 1 0x687 s 8 13 00 13 00 13 00 13 00 
19:33:22:2548 Rx 1 0x687 s 8 13 00 13 00 13 00 13 00 
19:33:22:2551 Rx 1 0x687 s 8 13 00 13 00 13 00 13 00 
19:33:22:2553 Rx 1 0x688 s 8 13 00 13 00 13 00 13 00 
19:33:22:2556 Rx 1 0x688 s 8 13 00 13 00 13 00 13 00 
19:33:22:2558 Rx 1 0x688 s 8 13 00 13 00 13 00 13 00 
19:33:22:2561 Rx 1 0x688 s 8 13 00 13 00 13 00 13 00 
19:33:22:2563 Rx 1 0x689 s 8 13 00 13 00 13 00 13 00 
19:33:22:2565 Rx 1 0x689 s 8 13 00 13 00 13 00 13 00 
19:33:22:2568 Rx 1 0x689 s 8 13 00 13 00 13 00 13 00 
19:33:22:2570 Rx 1 0x689 s 8 13 00 13 00 13 00 13 00 
19:33:22:2573 Rx 1 0x68A s 8 13 00 13 00 13 00 13 00 
19:33:22:2575 Rx 1 0x68A s 8 13 00 13 00 13 00 13 00 
19:33:22:2577 Rx 1 0x68A s 8 13 00 13 00 13 00 13 00 
19:33:22:2579 Rx 1 0x68A s 8 13 00 13 00 13 00 13 00 
19:33:22:2582 Rx 1 0x68B s 8 13 00 13 00 13 00 13 00 
19:33:22:2585 Rx 1 0x68B s 8 13 00 13 00 13 00 13 00 
19:33:22:2587 Rx 1 0x68B s 8 13 00 13 00 13 00 13 00 
19:33:22:2589 Rx 1 0x68B s 8 13 00 13 00 13 00 13 00 
19:33:22:2591 Rx 1 0x68C s 8 13 00 13 00 13 00 13 00 
19:33:22:2594 Rx 1 0x68C s 8 13 00 13 00 13 00 13 00 
19:33:22:2597 Rx 1 0x68C s 8 13 00 13 00 13 00 13 00 
19:33:22:2599 Rx 1 0x68C s 8 13 00 13 00 13 00 13 00 
19:33:22:2601 Rx 1 0x68D s 8 13 00 13 00 13 00 13 00 
19:33:22:2604 Rx 1 0x68D s 8 13 00 13 00 13 00 13 00 
19:33:22:2606 Rx 1 0x68D s 8 13 00 13 00 13 00 13 00 
19:33:22:2608 Rx 1 0x68D s 8 13 00 13 00 13 00 13 00 
19:33:22:2611 Rx 1 0x68E s 8 12 00 13 00 13 00 13 00 
19:33:22:2613 Rx 1 0x68E s 8 12 00 13 00 13 00 13 00 
19:33:22:2616 Rx 1 0x68E s 8 12 00 13 00 13 00 13 00 
19:33:22:2618 Rx 1 0x68E s 8 12 00 13 00 13 00 13 00 
19:33:22:2620 Rx 1 0x68F s 8 13 00 13 00 13 00 13 00 
19:33:22:2623 Rx 1 0x68F s 8 13 00 13 00 13 00 13 00 
19:33:22:2625 Rx 1 0x68F s 8 13 00 13 00 13 00 13 00 
19:33:22:2628 Rx 1 0x68F s 8 13 00 13 00 13 00 13 00 
19:33:22:2630 Rx 1 0x690 s 8 13 00 13 00 13 00 13 00 
19:33:22:2632 Rx 1 0x690 s 8 13 00 13 00 13 00 13 00 
19:33:22:2635 Rx 1 0x690 s 8 13 00 13 00 13 00 13 00 
19:33:22:2637 Rx 1 0x690 s 8 13 00 13 00 13 00 13 00 
19:33:22:2640 Rx 1 0x691 s 8 13 00 12 00 13 00 13 00 
19:33:22:2642 Rx 1 0x691 s 8 13 00 12 00 13 00 13 00 
19:33:22:2644 Rx 1 0x691 s 8 13 00 12 00 13 00 13 00 
19:33:22:2647 Rx 1 0x691 s 8 13 00 12 00 13 00 13 00 
19:33:22:2649 Rx 1 0x692 s 8 13 00 13 00 13 00 13 00 
19:33:22:2652 Rx 1 0x692 s 8 13 00 13 00 13 00 13 00 
19:33:22:2654 Rx 1 0x692 s 8 13 00 13 00 13 00 13 00 
19:33:22:2656 Rx 1 0x692 s 8 13 00 13 00 13 00 13 00 
19:33:22:2659 Rx 1 0x693 s 8 13 00 13 00 13 00 13 00 
19:33:22:2661 Rx 1 0x693 s 8 13 00 13 00 13 00 13 00 
19:33:22:2664 Rx 1 0x693 s 8 13 00 13 00 13 00 13 00 
19:33:22:2666 Rx 1 0x693 s 8 13 00 13 00 13 00 13 00 
19:33:22:2668 Rx 1 0x694 s 8 13 00 13 00 13 00 13 00 
19:33:22:2671 Rx 1 0x694 s 8 13 00 13 00 13 00 13 00 
19:33:22:2673 Rx 1 0x694 s 8 13 00 13 00 13 00 13 00 
19:33:22:2675 Rx 1 0x694 s 8 13 00 13 00 13 00 13 00 
19:33:22:2678 Rx 1 0x695 s 8 13 00 13 00 13 00 13 00 
19:33:22:2680 Rx 1 0x695 s 8 13 00 13 00 13 00 13 00 
19:33:22:2683 Rx 1 0x695 s 8 13 00 13 00 13 00 13 00 
19:33:22:2685 Rx 1 0x695 s 8 13 00 13 00 13 00 13 00 
19:33:22:2687 Rx 1 0x696 s 8 13 00 13 00 13 00 13 00 
19:33:22:2690 Rx 1 0x696 s 8 13 00 13 00 13 00 13 00 
19:33:22:2692 Rx 1 0x696 s 8 13 00 13 00 13 00 13 00 
19:33:22:2695 Rx 1 0x696 s 8 13 00 13 00 13 00 13 00 
19:33:22:2697 Rx 1 0x697 s 8 13 00 13 00 13 00 13 00 
19:33:22:2699 Rx 1 0x697 s 8 13 00 13 00 13 00 13 00 
19:33:22:2702 Rx 1 0x697 s 8 13 00 13 00 13 00 13 00 
19:33:22:2704 Rx 1 0x601 s 8 10 5D 63 8C 8F 00 00 00 
19:33:22:2707 Rx 1 0x697 s 8 13 00 13 00 13 00 13 00 
19:33:22:3504 Rx 1 0x600 s 8 00 00 00 A6 00 00 00 00 
19:33:22:3506 Rx 1 0x622 s 8 D4 97 B2 91 13 00 13 00 
19:33:22:3509 Rx 1 0x630 s 8 CA 94 2A 95 F1 94 1C 95 
19:33:22:3511 Rx 1 0x630 s 8 CA 94 2A 95 F1 94 1C 95 
19:33:22:3513 Rx 1 0x630 s 8 CA 94 2A 95 F1 94 1C 95 
19:33:22:3515 Rx 1 0x630 s 8 CA 94 2A 95 F1 94 1C 95 
19:33:22:3518 Rx 1 0x631 s 8 FD 94 11 95 EE 94 1F 95 
19:33:22:3520 Rx 1 0x631 s 8 FD 94 11 95 EE 94 1F 95 
19:33:22:3522 Rx 1 0x631 s 8 FD 94 11 95 EE 94 1F 95 
19:33:22:3524 Rx 1 0x631 s 8 FD 94 11 95 EE 94 1F 95 
19:33:22:3527 Rx 1 0x632 s 8 20 95 0C 95 08 95 E1 94 
19:33:22:3529 Rx 1 0x632 s 8 20 95 0C 95 08 95 E1 94 
19:33:22:3531 Rx 1 0x632 s 8 20 95 0C 95 08 95 E1 94 
19:33:22:3534 Rx 1 0x632 s 8 20 95 0C 95 08 95 E1 94 
19:33:22:3536 Rx 1 0x633 s 8 67 94 C6 94 C2 94 C4 94 
19:33:22:3538 Rx 1 0x633 s 8 67 94 C6 94 C2 94 C4 94 
19:33:22:3540 Rx 1 0x633 s 8 67 94 C6 94 C2 94 C4 94 
19:33:22:3542 Rx 1 0x633 s 8 67 94 C6 94 C2 94 C4 94 
19:33:22:3545 Rx 1 0x634 s 8 C4 94 AE 94 B2 94 AC 94 
19:33:22:3547 Rx 1 0x634 s 8 C4 94 AE 94 B2 94 AC 94 
19:33:22:3549 Rx 1 0x634 s 8 C4 94 AE 94 B2 94 AC 94 
19:33:22:3551 Rx 1 0x634 s 8 C4 94 AE 94 B2 94 AC 94 
19:33:22:3554 Rx 1 0x635 s 8 BF 94 C1 94 BA 94 77 94 
19:33:22:3556 Rx 1 0x635 s 8 BF 94 C1 94 BA 94 77 94 
19:33:22:3558 Rx 1 0x635 s 8 BF 94 C1 94 BA 94 77 94 
19:33:22:3561 Rx 1 0x635 s 8 BF 94 C1 94 BA 94 77 94 
19:33:22:3563 Rx 1 0x636 s 8 19 95 36 95 48 95 49 95 
19:33:22:3565 Rx 1 0x636 s 8 19 95 36 95 48 95 49 95 
19:33:22:3568 Rx 1 0x636 s 8 19 95 36 95 48 95 49 95 
19:33:22:3570 Rx 1 0x636 s 8 19 95 36 95 48 95 49 95 
19:33:22:3572 Rx 1 0x637 s 8 40 95 38 95 35 95 40 95 
19:33:22:3574 Rx 1 0x637 s 8 40 95 38 95 35 95 40 95 
19:33:22:3576 Rx 1 0x637 s 8 40 95 38 95 35 95 40 95 
19:33:22:3579 Rx 1 0x637 s 8 40 95 38 95 35 95 40 95 
19:33:22:3581 Rx 1 0x638 s 8 4B 95 4D 95 46 95 2F 95 
19:33:22:3583 Rx 1 0x638 s 8 4B 95 4D 95 46 95 2F 95 
19:33:22:3585 Rx 1 0x638 s 8 4B 95 4D 95 46 95 2F 95 
19:33:22:3588 Rx 1 0x638 s 8 4B 95 4D 95 46 95 2F 95 
19:33:22:3590 Rx 1 0x639 s 8 60 95 4D 95 48 95 32 95 
19:33:22:3592 Rx 1 0x639 s 8 60 95 4D 95 48 95 32 95 
19:33:22:3594 Rx 1 0x639 s 8 60 95 4D 95 48 95 32 95 
19:33:22:3597 Rx 1 0x639 s 8 60 95 4D 95 48 95 32 95 
19:33:22:3599 Rx 1 0x63A s 8 37 95 31 95 2D 95 0C 95 
19:33:22:3601 Rx 1 0x63A s 8 37 95 31 95 2D 95 0C 95 
19:33:22:3603 Rx 1 0x63A s 8 37 95 31 95 2D 95 0C 95 
19:33:22:3606 Rx 1 0x63A s 8 37 95 31 95 2D 95 0C 95 
19:33:22:3608 Rx 1 0x63B s 8 41 95 44 95 20 95 02 95 
19:33:22:3610 Rx 1 0x63B s 8 41 95 44 95 20 95 02 95 
19:33:22:3613 Rx 1 0x63B s 8 41 95 44 95 20 95 02 95 
19:33:22:3615 Rx 1 0x63B s 8 41 95 44 95 20 95 02 95 
19:33:22:3617 Rx 1 0x63C s 8 F5 94 40 95 0D 95 17 95 
19:33:22:3620 Rx 1 0x63C s 8 F5 94 40 95 0D 95 17 95 
19:33:22:3622 Rx 1 0x63C s 8 F5 94 40 95 0D 95 17 95 
19:33:22:3624 Rx 1 0x63C s 8 F5 94 40 95 0D 95 17 95 
19:33:22:3626 Rx 1 0x63D s 8 CD 94 0C 95 21 95 35 95 
19:33:22:3629 Rx 1 0x63D s 8 CD 94 0C 95 21 95 35 95 
19:33:22:3631 Rx 1 0x63D s 8 CD 94 0C 95 21 95 35 95 
19:33:22:3633 Rx 1 0x63D s 8 CD 94 0C 95 21 95 35 95 
19:33:22:3635 Rx 1 0x63E s 8 2A 95 B2 91 0A 95 00 95 
19:33:22:3637 Rx 1 0x63E s 8 2A 95 B2 91 0A 95 00 95 
19:33:22:3640 Rx 1 0x63E s 8 2A 95 B2 91 0A 95 00 95 
19:33:22:3642 Rx 1 0x63E s 8 2A 95 B2 91 0A 95 00 95 
19:33:22:3644 Rx 1 0x63F s 8 1E 95 59 95 31 95 60 95 
19:33:22:3647 Rx 1 0x63F s 8 1E 95 59 95 31 95 60 95 
19:33:22:3649 Rx 1 0x63F s 8 1E 95 59 95 31 95 60 95 
19:33:22:3652 Rx 1 0x63F s 8 1E 95 59 95 31 95 60 95 
19:33:22:3654 Rx 1 0x640 s 8 57 95 3D 95 48 95 37 95 
19:33:22:3656 Rx 1 0x640 s 8 57 95 3D 95 48 95 37 95 
19:33:22:3658 Rx 1 0x640 s 8 57 95 3D 95 48 95 37 95 
19:33:22:3661 Rx 1 0x640 s 8 57 95 3D 95 48 95 37 95 
19:33:22:3663 Rx 1 0x641 s 8 1A 95 5A 95 52 95 24 95 
19:33:22:3665 Rx 1 0x641 s 8 1A 95 5A 95 52 95 24 95 
19:33:22:3667 Rx 1 0x641 s 8 1A 95 5A 95 52 95 24 95 
19:33:22:3669 Rx 1 0x641 s 8 1A 95 5A 95 52 95 24 95 
19:33:22:3672 Rx 1 0x642 s 8 73 96 6B 96 7E 95 AD 95 
19:33:22:3674 Rx 1 0x642 s 8 73 96 6B 96 7E 95 AD 95 
19:33:22:3676 Rx 1 0x642 s 8 73 96 6B 96 7E 95 AD 95 
19:33:22:3678 Rx 1 0x642 s 8 73 96 6B 96 7E 95 AD 95 
19:33:22:3681 Rx 1 0x643 s 8 B5 97 D4 97 D2 97 B5 96 
19:33:22:3683 Rx 1 0x643 s 8 B5 97 D4 97 D2 97 B5 96 
19:33:22:3685 Rx 1 0x643 s 8 B5 97 D4 97 D2 97 B5 96 
19:33:22:3688 Rx 1 0x643 s 8 B5 97 D4 97 D2 97 B5 96 
19:33:22:3690 Rx 1 0x644 s 8 77 97 70 97 12 97 36 97 
19:33:22:3692 Rx 1 0x644 s 8 77 97 70 97 12 97 36 97 
19:33:22:3694 Rx 1 0x644 s 8 77 97 70 97 12 97 36 97 
19:33:22:3697 Rx 1 0x644 s 8 77 97 70 97 12 97 36 97 
19:33:22:3699 Rx 1 0x645 s 8 49 95 37 95 06 95 5B 95 
19:33:22:3701 Rx 1 0x645 s 8 49 95 37 95 06 95 5B 95 
19:33:22:3703 Rx 1 0x645 s 8 49 95 37 95 06 95 5B 95 
19:33:22:3706 Rx 1 0x645 s 8 49 95 37 95 06 95 5B 95 
19:33:22:3708 Rx 1 0x646 s 8 E0 94 5D 95 4C 95 68 95 
19:33:22:3710 Rx 1 0x646 s 8 E0 94 5D 95 4C 95 68 95 
19:33:22:3712 Rx 1 0x646 s 8 E0 94 5D 95 4C 95 68 95 
19:33:22:3715 Rx 1 0x646 s 8 E0 94 5D 95 4C 95 68 95 
19:33:22:3717 Rx 1 0x647 s 8 70 95 6F 95 6F 95 3A 95 
19:33:22:3719 Rx 1 0x647 s 8 70 95 6F 95 6F 95 3A 95 
19:33:22:3722 Rx 1 0x647 s 8 70 95 6F 95 6F 95 3A 95 
19:33:22:3724 Rx 1 0x647 s 8 70 95 6F 95 6F 95 3A 95 
19:33:22:3726 Rx 1 0x680 s 8 13 00 13 00 13 00 13 00 
19:33:22:3728 Rx 1 0x680 s 8 13 00 13 00 13 00 13 00 
19:33:22:3731 Rx 1 0x680 s 8 13 00 13 00 13 00 13 00 
19:33:22:3733 Rx 1 0x680 s 8 13 00 13 00 13 00 13 00 
19:33:22:3736 Rx 1 0x681 s 8 13 00 12 00 13 00 13 00 
19:33:22:3738 Rx 1 0x681 s 8 13 00 12 00 13 00 13 00 
19:33:22:3740 Rx 1 0x681 s 8 13 00 12 00 13 00 13 00 
19:33:22:3743 Rx 1 0x681 s 8 13 00 12 00 13 00 13 00 
19:33:22:3745 Rx 1 0x682 s 8 13 00 13 00 13 00 13 00 
19:33:22:3748 Rx 1 0x682 s 8 13 00 13 00 13 00 13 00 
19:33:22:3750 Rx 1 0x682 s 8 13 00 13 00 13 00 13 00 
19:33:22:3753 Rx 1 0x682 s 8 13 00 13 00 13 00 13 00 
19:33:22:3755 Rx 1 0x683 s 8 13 00 13 00 13 00 13 00 
19:33:22:3757 Rx 1 0x683 s 8 13 00 13 00 13 00 13 00 
19:33:22:3760 Rx 1 0x683 s 8 13 00 13 00 13 00 13 00 
19:33:22:3762 Rx 1 0x683 s 8 13 00 13 00 13 00 13 00 
19:33:22:3765 Rx 1 0x684 s 8 13 00 13 00 13 00 13 00 
19:33:22:3767 Rx 1 0x684 s 8 13 00 13 00 13 00 13 00 
19:33:22:3769 Rx 1 0x684 s 8 13 00 13 00 13 00 13 00 
19:33:22:3772 Rx 1 0x684 s 8 13 00 13 00 13 00 13 00 
19:33:22:3774 Rx 1 0x685 s 8 13 00 13 00 13 00 13 00 
19:33:22:3777 Rx 1 0x685 s 8 13 00 13 00 13 00 13 00 
19:33:22:3779 Rx 1 0x685 s 8 13 00 13 00 13 00 13 00 
19:33:22:3782 Rx 1 0x685 s 8 13 00 13 00 13 00 13 00 
19:33:22:3784 Rx 1 0x686 s 8 13 00 13 00 13 00 13 00 
19:33:22:3786 Rx 1 0x686 s 8 13 00 13 00 13 00 13 00 
19:33:22:3789 Rx 1 0x686 s 8 13 00 13 00 13 00 13 00 
19:33:22:3791 Rx 1 0x686 s 8 13 00 13 00 13 00 13 00 
19:33:22:3794 Rx 1 0x687 s 8 13 00 13 00 13 00 13 00 
19:33:22:3796 Rx 1 0x687 s 8 13 00 13 00 13 00 13 00 
19:33:22:3798 Rx 1 0x687 s 8 13 00 13 00 13 00 13 00 
19:33:22:3801 Rx 1 0x687 s 8 13 00 13 00 13 00 13 00 
19:33:22:3803 Rx 1 0x688 s 8 13 00 13 00 13 00 13 00 
19:33:22:3806 Rx 1 0x688 s 8 13 00 13 00 13 00 13 00 
19:33:22:3808 Rx 1 0x688 s 8 13 00 13 00 13 00 13 00 
19:33:22:3810 Rx 1 0x688 s 8 13 00 13 00 13 00 13 00 
19:33:22:3813 Rx 1 0x689 s 8 13 00 13 00 13 00 13 00 
19:33:22:3815 Rx 1 0x689 s 8 13 00 13 00 13 00 13 00 
19:33:22:3818 Rx 1 0x689 s 8 13 00 13 00 13 00 13 00 
19:33:22:3820 Rx 1 0x689 s 8 13 00 13 00 13 00 13 00 
19:33:22:3822 Rx 1 0x68A s 8 13 00 13 00 13 00 13 00 
19:33:22:3825 Rx 1 0x68A s 8 13 00 13 00 13 00 13 00 
19:33:22:3827 Rx 1 0x68A s 8 13 00 13 00 13 00 13 00 
19:33:22:3829 Rx 1 0x68A s 8 13 00 13 00 13 00 13 00 
19:33:22:3832 Rx 1 0x68B s 8 13 00 13 00 13 00 13 00 
19:33:22:3834 Rx 1 0x68B s 8 13 00 13 00 13 00 13 00 
19:33:22:3837 Rx 1 0x68B s 8 13 00 13 00 13 00 13 00 
19:33:22:3839 Rx 1 0x68B s 8 13 00 13 00 13 00 13 00 
19:33:22:3841 Rx 1 0x68C s 8 13 00 13 00 13 00 13 00 
19:33:22:3844 Rx 1 0x68C s 8 13 00 13 00 13 00 13 00 
19:33:22:3846 Rx 1 0x68C s 8 13 00 13 00 13 00 13 00 
19:33:22:3849 Rx 1 0x68C s 8 13 00 13 00 13 00 13 00 
19:33:22:3851 Rx 1 0x68D s 8 13 00 13 00 13 00 13 00 
19:33:22:3853 Rx 1 0x68D s 8 13 00 13 00 13 00 13 00 
19:33:22:3856 Rx 1 0x68D s 8 13 00 13 00 13 00 13 00 
19:33:22:3858 Rx 1 0x68D s 8 13 00 13 00 13 00 13 00 
19:33:22:3861 Rx 1 0x68E s 8 12 00 13 00 13 00 13 00 
19:33:22:3863 Rx 1 0x68E s 8 12 00 13 00 13 00 13 00 
19:33:22:3866 Rx 1 0x68E s 8 12 00 13 00 13 00 13 00 
19:33:22:3868 Rx 1 0x68E s 8 12 00 13 00 13 00 13 00 
19:33:22:3870 Rx 1 0x68F s 8 13 00 13 00 13 00 13 00 
19:33:22:3873 Rx 1 0x68F s 8 13 00 13 00 13 00 13 00 
19:33:22:3875 Rx 1 0x68F s 8 13 00 13 00 13 00 13 00 
19:33:22:3878 Rx 1 0x68F s 8 13 00 13 00 13 00 13 00 
19:33:22:3880 Rx 1 0x690 s 8 13 00 13 00 13 00 13 00 
19:33:22:3882 Rx 1 0x690 s 8 13 00 13 00 13 00 13 00 
19:33:22:3885 Rx 1 0x690 s 8 13 00 13 00 13 00 13 00 
19:33:22:3887 Rx 1 0x690 s 8 13 00 13 00 13 00 13 00 
19:33:22:3890 Rx 1 0x691 s 8 13 00 12 00 13 00 13 00 
19:33:22:3892 Rx 1 0x691 s 8 13 00 12 00 13 00 13 00 
19:33:22:3894 Rx 1 0x691 s 8 13 00 12 00 13 00 13 00 
19:33:22:3896 Rx 1 0x691 s 8 13 00 12 00 13 00 13 00 
19:33:22:3899 Rx 1 0x692 s 8 13 00 13 00 13 00 13 00 
19:33:22:3902 Rx 1 0x692 s 8 13 00 13 00 13 00 13 00 
19:33:22:3904 Rx 1 0x692 s 8 13 00 13 00 13 00 13 00 
19:33:22:3906 Rx 1 0x692 s 8 13 00 13 00 13 00 13 00 
19:33:22:3908 Rx 1 0x693 s 8 13 00 13 00 13 00 13 00 
19:33:22:3911 Rx 1 0x693 s 8 13 00 13 00 13 00 13 00 
19:33:22:3914 Rx 1 0x693 s 8 13 00 13 00 13 00 13 00 
19:33:22:3916 Rx 1 0x693 s 8 13 00 13 00 13 00 13 00 
19:33:22:3918 Rx 1 0x694 s 8 13 00 13 00 13 00 13 00 
19:33:22:3920 Rx 1 0x694 s 8 13 00 13 00 13 00 13 00 
19:33:22:3923 Rx 1 0x694 s 8 13 00 13 00 13 00 13 00 
19:33:22:3925 Rx 1 0x694 s 8 13 00 13 00 13 00 13 00 
19:33:22:3928 Rx 1 0x695 s 8 13 00 13 00 13 00 13 00 
19:33:22:3930 Rx 1 0x695 s 8 13 00 13 00 13 00 13 00 
19:33:22:3933 Rx 1 0x695 s 8 13 00 13 00 13 00 13 00 
19:33:22:3935 Rx 1 0x695 s 8 13 00 13 00 13 00 13 00 
19:33:22:3937 Rx 1 0x696 s 8 13 00 13 00 13 00 13 00 
19:33:22:3940 Rx 1 0x696 s 8 13 00 13 00 13 00 13 00 
19:33:22:3942 Rx 1 0x696 s 8 13 00 13 00 13 00 13 00 
19:33:22:3944 Rx 1 0x696 s 8 13 00 13 00 13 00 13 00 
19:33:22:3947 Rx 1 0x697 s 8 13 00 13 00 13 00 13 00 
19:33:22:3949 Rx 1 0x697 s 8 13 00 13 00 13 00 13 00 
19:33:22:3951 Rx 1 0x697 s 8 13 00 13 00 13 00 13 00 
19:33:22:3954 Rx 1 0x601 s 8 0F 5D 63 CE 91 00 00 00 
19:33:22:3956 Rx 1 0x697 s 8 13 00 13 00 13 00 13 00 
19:33:22:4274 Rx 1 0x600 s 8 00 00 00 A7 00 00 00 00 
19:33:22:4276 Rx 1 0x622 s 8 D4 97 B1 91 13 00 13 00 
19:33:22:4278 Rx 1 0x630 s 8 CB 94 2A 95 F2 94 18 95 
19:33:22:4281 Rx 1 0x630 s 8 CB 94 2A 95 F2 94 18 95 
19:33:22:4283 Rx 1 0x630 s 8 CB 94 2A 95 F2 94 18 95 
19:33:22:4286 Rx 1 0x630 s 8 CB 94 2A 95 F2 94 18 95 
19:33:22:4288 Rx 1 0x631 s 8 FA 94 11 95 EE 94 1F 95 
19:33:22:4290 Rx 1 0x631 s 8 FA 94 11 95 EE 94 1F 95 
19:33:22:4292 Rx 1 0x631 s 8 FA 94 11 95 EE 94 1F 95 
19:33:22:4295 Rx 1 0x631 s 8 FA 94 11 95 EE 94 1F 95 
19:33:22:4297 Rx 1 0x632 s 8 22 95 0F 95 09 95 DB 94 
19:33:22:4299 Rx 1 0x632 s 8 22 95 0F 95 09 95 DB 94 
19:33:22:4301 Rx 1 0x632 s 8 22 95 0F 95 09 95 DB 94 
19:33:22:4304 Rx 1 0x632 s 8 22 95 0F 95 09 95 DB 94 
19:33:22:4306 Rx 1 0x633 s 8 67 94 C6 94 C2 94 C5 94 
19:33:22:4308 Rx 1 0x633 s 8 67 94 C6 94 C2 94 C5 94 
19:33:22:4310 Rx 1 0x633 s 8 67 94 C6 94 C2 94 C5 94 
19:33:22:4313 Rx 1 0x633 s 8 67 94 C6 94 C2 94 C5 94 
19:33:22:4315 Rx 1 0x634 s 8 C4 94 AE 94 B0 94 AB 94 
19:33:22:4317 Rx 1 0x634 s 8 C4 94 AE 94 B0 94 AB 94 
19:33:22:4319 Rx 1 0x634 s 8 C4 94 AE 94 B0 94 AB 94 
19:33:22:4322 Rx 1 0x634 s 8 C4 94 AE 94 B0 94 AB 94 
19:33:22:4324 Rx 1 0x635 s 8 BE 94 BE 94 B9 94 76 94 
19:33:22:4326 Rx 1 0x635 s 8 BE 94 BE 94 B9 94 76 94 
19:33:22:4329 Rx 1 0x635 s 8 BE 94 BE 94 B9 94 76 94 
19:33:22:4331 Rx 1 0x635 s 8 BE 94 BE 94 B9 94 76 94 
19:33:22:4333 Rx 1 0x636 s 8 18 95 35 95 47 95 48 95 
19:33:22:4335 Rx 1 0x636 s 8 18 95 35 95 47 95 48 95 
19:33:22:4338 Rx 1 0x636 s 8 18 95 35 95 47 95 48 95 
19:33:22:4340 Rx 1 0x636 s 8 18 95 35 95 47 95 48 95 
19:33:22:4342 Rx 1 0x637 s 8 3A 95 36 95 35 95 40 95 
19:33:22:4344 Rx 1 0x637 s 8 3A 95 36 95 35 95 40 95 
19:33:22:4347 Rx 1 0x637 s 8 3A 95 36 95 35 95 40 95 
19:33:22:4349 Rx 1 0x637 s 8 3A 95 36 95 35 95 40 95 
19:33:22:4351 Rx 1 0x638 s 8 4A 95 4D 95 4A 95 2F 95 
19:33:22:4353 Rx 1 0x638 s 8 4A 95 4D 95 4A 95 2F 95 
19:33:22:4356 Rx 1 0x638 s 8 4A 95 4D 95 4A 95 2F 95 
19:33:22:4358 Rx 1 0x638 s 8 4A 95 4D 95 4A 95 2F 95 
19:33:22:4360 Rx 1 0x639 s 8 61 95 4C 95 46 95 32 95 
19:33:22:4362 Rx 1 0x639 s 8 61 95 4C 95 46 95 32 95 
19:33:22:4365 Rx 1 0x639 s 8 61 95 4C 95 46 95 32 95 
19:33:22:4367 Rx 1 0x639 s 8 61 95 4C 95 46 95 32 95 
19:33:22:4369 Rx 1 0x63A s 8 35 95 2E 95 2D 95 0D 95 
19:33:22:4371 Rx 1 0x63A s 8 35 95 2E 95 2D 95 0D 95 
19:33:22:4374 Rx 1 0x63A s 8 35 95 2E 95 2D 95 0D 95 
19:33:22:4376 Rx 1 0x63A s 8 35 95 2E 95 2D 95 0D 95 
19:33:22:4378 Rx 1 0x63B s 8 42 95 49 95 1E 95 03 95 
19:33:22:4380 Rx 1 0x63B s 8 42 95 49 95 1E 95 03 95 
19:33:22:4383 Rx 1 0x63B s 8 42 95 49 95 1E 95 03 95 
19:33:22:4385 Rx 1 0x63B s 8 42 95 49 95 1E 95 03 95 
19:33:22:4387 Rx 1 0x63C s 8 F6 94 40 95 0D 95 13 95 
19:33:22:4389 Rx 1 0x63C s 8 F6 94 40 95 0D 95 13 95 
19:33:22:4392 Rx 1 0x63C s 8 F6 94 40 95 0D 95 13 95 
19:33:22:4394 Rx 1 0x63C s 8 F6 94 40 95 0D 95 13 95 
19:33:22:4396 Rx 1 0x63D s 8 CD 94 0C 95 21 95 34 95 
19:33:22:4399 Rx 1 0x63D s 8 CD 94 0C 95 21 95 34 95 
19:33:22:4401 Rx 1 0x63D s 8 CD 94 0C 95 21 95 34 95 
19:33:22:4403 Rx 1 0x63D s 8 CD 94 0C 95 21 95 34 95 
19:33:22:4405 Rx 1 0x63E s 8 2A 95 B1 91 0C 95 FD 94 
19:33:22:4408 Rx 1 0x63E s 8 2A 95 B1 91 0C 95 FD 94 
19:33:22:4410 Rx 1 0x63E s 8 2A 95 B1 91 0C 95 FD 94 
19:33:22:4412 Rx 1 0x63E s 8 2A 95 B1 91 0C 95 FD 94 
19:33:22:4414 Rx 1 0x63F s 8 1F 95 5A 95 31 95 5F 95 
19:33:22:4417 Rx 1 0x63F s 8 1F 95 5A 95 31 95 5F 95 
19:33:22:4419 Rx 1 0x63F s 8 1F 95 5A 95 31 95 5F 95 
19:33:22:4422 Rx 1 0x63F s 8 1F 95 5A 95 31 95 5F 95 
19:33:22:4424 Rx 1 0x640 s 8 58 95 3D 95 49 95 36 95 
19:33:22:4426 Rx 1 0x640 s 8 58 95 3D 95 49 95 36 95 
19:33:22:4428 Rx 1 0x640 s 8 58 95 3D 95 49 95 36 95 
19:33:22:4431 Rx 1 0x640 s 8 58 95 3D 95 49 95 36 95 
19:33:22:4433 Rx 1 0x641 s 8 1B 95 5B 95 5A 95 23 95 
19:33:22:4435 Rx 1 0x641 s 8 1B 95 5B 95 5A 95 23 95 
19:33:22:4437 Rx 1 0x641 s 8 1B 95 5B 95 5A 95 23 95 
19:33:22:4440 Rx 1 0x641 s 8 1B 95 5B 95 5A 95 23 95 
19:33:22:4442 Rx 1 0x642 s 8 74 96 6D 96 7E 95 A9 95 
19:33:22:4444 Rx 1 0x642 s 8 74 96 6D 96 7E 95 A9 95 
19:33:22:4446 Rx 1 0x642 s 8 74 96 6D 96 7E 95 A9 95 
19:33:22:4449 Rx 1 0x642 s 8 74 96 6D 96 7E 95 A9 95 
19:33:22:4451 Rx 1 0x643 s 8 B5 97 D4 97 D2 97 B6 96 
19:33:22:4453 Rx 1 0x643 s 8 B5 97 D4 97 D2 97 B6 96 
19:33:22:4455 Rx 1 0x643 s 8 B5 97 D4 97 D2 97 B6 96 
19:33:22:4458 Rx 1 0x643 s 8 B5 97 D4 97 D2 97 B6 96 
19:33:22:4460 Rx 1 0x644 s 8 76 97 72 97 15 97 36 97 
19:33:22:4462 Rx 1 0x644 s 8 76 97 72 97 15 97 36 97 
19:33:22:4464 Rx 1 0x644 s 8 76 97 72 97 15 97 36 97 
19:33:22:4466 Rx 1 0x644 s 8 76 97 72 97 15 97 36 97 
19:33:22:4469 Rx 1 0x645 s 8 49 95 37 95 06 95 5B 95 
19:33:22:4471 Rx 1 0x645 s 8 49 95 37 95 06 95 5B 95 
19:33:22:4473 Rx 1 0x645 s 8 49 95 37 95 06 95 5B 95 
19:33:22:4475 Rx 1 0x645 s 8 49 95 37 95 06 95 5B 95 
19:33:22:4478 Rx 1 0x646 s 8 E0 94 5D 95 4A 95 69 95 
19:33:22:4480 Rx 1 0x646 s 8 E0 94 5D 95 4A 95 69 95 
19:33:22:4482 Rx 1 0x646 s 8 E0 94 5D 95 4A 95 69 95 
19:33:22:4485 Rx 1 0x646 s 8 E0 94 5D 95 4A 95 69 95 
19:33:22:4487 Rx 1 0x647 s 8 71 95 6E 95 6F 95 3A 95 
19:33:22:4489 Rx 1 0x647 s 8 71 95 6E 95 6F 95 3A 95 
19:33:22:4491 Rx 1 0x647 s 8 71 95 6E 95 6F 95 3A 95 
19:33:22:4494 Rx 1 0x647 s 8 71 95 6E 95 6F 95 3A 95 
19:33:22:4496 Rx 1 0x680 s 8 13 00 13 00 13 00 13 00 
19:33:22:4498 Rx 1 0x680 s 8 13 00 13 00 13 00 13 00 
19:33:22:4501 Rx 1 0x680 s 8 13 00 13 00 13 00 13 00 
19:33:22:4503 Rx 1 0x680 s 8 13 00 13 00 13 00 13 00 
19:33:22:4506 Rx 1 0x681 s 8 13 00 12 00 13 00 13 00 
19:33:22:4508 Rx 1 0x681 s 8 13 00 12 00 13 00 13 00 
19:33:22:4510 Rx 1 0x681 s 8 13 00 12 00 13 00 13 00 
19:33:22:4513 Rx 1 0x681 s 8 13 00 12 00 13 00 13 00 
19:33:22:4516 Rx 1 0x682 s 8 13 00 13 00 13 00 13 00 
19:33:22:4518 Rx 1 0x682 s 8 13 00 13 00 13 00 13 00 
19:33:22:4520 Rx 1 0x682 s 8 13 00 13 00 13 00 13 00 
19:33:22:4522 Rx 1 0x682 s 8 13 00 13 00 13 00 13 00 
19:33:22:4525 Rx 1 0x683 s 8 13 00 13 00 13 00 13 00 
19:33:22:4527 Rx 1 0x683 s 8 13 00 13 00 13 00 13 00 
19:33:22:4530 Rx 1 0x683 s 8 13 00 13 00 13 00 13 00 
19:33:22:4532 Rx 1 0x683 s 8 13 00 13 00 13 00 13 00 
19:33:22:4535 Rx 1 0x684 s 8 13 00 13 00 13 00 13 00 
19:33:22:4537 Rx 1 0x684 s 8 13 00 13 00 13 00 13 00 
19:33:22:4539 Rx 1 0x684 s 8 13 00 13 00 13 00 13 00 
19:33:22:4542 Rx 1 0x684 s 8 13 00 13 00 13 00 13 00 
19:33:22:4544 Rx 1 0x685 s 8 13 00 13 00 13 00 13 00 
19:33:22:4547 Rx 1 0x685 s 8 13 00 13 00 13 00 13 00 
19:33:22:4549 Rx 1 0x685 s 8 13 00 13 00 13 00 13 00 
19:33:22:4551 Rx 1 0x685 s 8 13 00 13 00 13 00 13 00 
19:33:22:4554 Rx 1 0x686 s 8 13 00 13 00 13 00 13 00 
19:33:22:4557 Rx 1 0x686 s 8 13 00 13 00 13 00 13 00 
19:33:22:4559 Rx 1 0x686 s 8 13 00 13 00 13 00 13 00 
19:33:22:4561 Rx 1 0x686 s 8 13 00 13 00 13 00 13 00 
19:33:22:4564 Rx 1 0x687 s 8 13 00 13 00 13 00 13 00 
19:33:22:4566 Rx 1 0x687 s 8 13 00 13 00 13 00 13 00 
19:33:22:4568 Rx 1 0x687 s 8 13 00 13 00 13 00 13 00 
19:33:22:4571 Rx 1 0x687 s 8 13 00 13 00 13 00 13 00 
19:33:22:4573 Rx 1 0x688 s 8 13 00 13 00 13 00 13 00 
19:33:22:4576 Rx 1 0x688 s 8 13 00 13 00 13 00 13 00 
19:33:22:4578 Rx 1 0x688 s 8 13 00 13 00 13 00 13 00 
19:33:22:4580 Rx 1 0x688 s 8 13 00 13 00 13 00 13 00 
19:33:22:4583 Rx 1 0x689 s 8 13 00 13 00 13 00 13 00 
19:33:22:4585 Rx 1 0x689 s 8 13 00 13 00 13 00 13 00 
19:33:22:4588 Rx 1 0x689 s 8 13 00 13 00 13 00 13 00 
19:33:22:4590 Rx 1 0x689 s 8 13 00 13 00 13 00 13 00 
19:33:22:4592 Rx 1 0x68A s 8 13 00 13 00 13 00 13 00 
19:33:22:4595 Rx 1 0x68A s 8 13 00 13 00 13 00 13 00 
19:33:22:4597 Rx 1 0x68A s 8 13 00 13 00 13 00 13 00 
19:33:22:4600 Rx 1 0x68A s 8 13 00 13 00 13 00 13 00 
19:33:22:4602 Rx 1 0x68B s 8 13 00 13 00 13 00 13 00 
19:33:22:4604 Rx 1 0x68B s 8 13 00 13 00 13 00 13 00 
19:33:22:4607 Rx 1 0x68B s 8 13 00 13 00 13 00 13 00 
19:33:22:4609 Rx 1 0x68B s 8 13 00 13 00 13 00 13 00 
19:33:22:4612 Rx 1 0x68C s 8 13 00 13 00 13 00 13 00 
19:33:22:4614 Rx 1 0x68C s 8 13 00 13 00 13 00 13 00 
19:33:22:4616 Rx 1 0x68C s 8 13 00 13 00 13 00 13 00 
19:33:22:4619 Rx 1 0x68C s 8 13 00 13 00 13 00 13 00 
19:33:22:4621 Rx 1 0x68D s 8 13 00 13 00 13 00 13 00 
19:33:22:4623 Rx 1 0x68D s 8 13 00 13 00 13 00 13 00 
19:33:22:4626 Rx 1 0x68D s 8 13 00 13 00 13 00 13 00 
19:33:22:4628 Rx 1 0x68D s 8 13 00 13 00 13 00 13 00 
19:33:22:4631 Rx 1 0x68E s 8 12 00 13 00 13 00 13 00 
19:33:22:4633 Rx 1 0x68E s 8 12 00 13 00 13 00 13 00 
19:33:22:4635 Rx 1 0x68E s 8 12 00 13 00 13 00 13 00 
19:33:22:4638 Rx 1 0x68E s 8 12 00 13 00 13 00 13 00 
19:33:22:4641 Rx 1 0x68F s 8 13 00 13 00 13 00 13 00 
19:33:22:4643 Rx 1 0x68F s 8 13 00 13 00 13 00 13 00 
19:33:22:4645 Rx 1 0x68F s 8 13 00 13 00 13 00 13 00 
19:33:22:4647 Rx 1 0x68F s 8 13 00 13 00 13 00 13 00 
19:33:22:4650 Rx 1 0x690 s 8 13 00 13 00 13 00 13 00 
19:33:22:4652 Rx 1 0x690 s 8 13 00 13 00 13 00 13 00 
19:33:22:4655 Rx 1 0x690 s 8 13 00 13 00 13 00 13 00 
19:33:22:4657 Rx 1 0x690 s 8 13 00 13 00 13 00 13 00 
19:33:22:4660 Rx 1 0x691 s 8 13 00 12 00 13 00 13 00 
19:33:22:4662 Rx 1 0x691 s 8 13 00 12 00 13 00 13 00 
19:33:22:4664 Rx 1 0x691 s 8 13 00 12 00 13 00 13 00 
19:33:22:4667 Rx 1 0x691 s 8 13 00 12 00 13 00 13 00 
19:33:22:4669 Rx 1 0x692 s 8 13 00 13 00 13 00 13 00 
19:33:22:4671 Rx 1 0x692 s 8 13 00 13 00 13 00 13 00 
19:33:22:4674 Rx 1 0x692 s 8 13 00 13 00 13 00 13 00 
19:33:22:4676 Rx 1 0x692 s 8 13 00 13 00 13 00 13 00 
19:33:22:4679 Rx 1 0x693 s 8 13 00 13 00 13 00 13 00 
19:33:22:4681 Rx 1 0x693 s 8 13 00 13 00 13 00 13 00 
19:33:22:4683 Rx 1 0x693 s 8 13 00 13 00 13 00 13 00 
19:33:22:4686 Rx 1 0x693 s 8 13 00 13 00 13 00 13 00 
19:33:22:4688 Rx 1 0x694 s 8 13 00 13 00 13 00 13 00 
19:33:22:4690 Rx 1 0x694 s 8 13 00 13 00 13 00 13 00 
19:33:22:4693 Rx 1 0x694 s 8 13 00 13 00 13 00 13 00 
19:33:22:4696 Rx 1 0x694 s 8 13 00 13 00 13 00 13 00 
19:33:22:4698 Rx 1 0x695 s 8 13 00 13 00 13 00 13 00 
19:33:22:4700 Rx 1 0x695 s 8 13 00 13 00 13 00 13 00 
19:33:22:4702 Rx 1 0x695 s 8 13 00 13 00 13 00 13 00 
19:33:22:4705 Rx 1 0x695 s 8 13 00 13 00 13 00 13 00 
19:33:22:4707 Rx 1 0x696 s 8 13 00 13 00 13 00 13 00 
19:33:22:4710 Rx 1 0x696 s 8 13 00 13 00 13 00 13 00 
19:33:22:4712 Rx 1 0x696 s 8 13 00 13 00 13 00 13 00 
19:33:22:4714 Rx 1 0x696 s 8 13 00 13 00 13 00 13 00 
19:33:22:4717 Rx 1 0x697 s 8 13 00 13 00 13 00 13 00 
19:33:22:4719 Rx 1 0x697 s 8 13 00 13 00 13 00 13 00 
19:33:22:4722 Rx 1 0x697 s 8 13 00 13 00 13 00 13 00 
19:33:22:4724 Rx 1 0x601 s 8 0F 5D 63 C1 8F 00 00 00 
19:33:22:4726 Rx 1 0x697 s 8 13 00 13 00 13 00 13 00 
19:33:22:5524 Rx 1 0x600 s 8 00 00 00 A6 00 00 00 00 
19:33:22:5526 Rx 1 0x622 s 8 D4 97 B3 91 13 00 13 00 
19:33:22:5528 Rx 1 0x630 s 8 CB 94 29 95 F1 94 1E 95 
19:33:22:5531 Rx 1 0x630 s 8 CB 94 29 95 F1 94 1E 95 
19:33:22:5533 Rx 1 0x630 s 8 CB 94 29 95 F1 94 1E 95 
19:33:22:5535 Rx 1 0x630 s 8 CB 94 29 95 F1 94 1E 95 
19:33:22:5538 Rx 1 0x631 s 8 FC 94 11 95 EE 94 1F 95 
19:33:22:5540 Rx 1 0x631 s 8 FC 94 11 95 EE 94 1F 95 
19:33:22:5543 Rx 1 0x631 s 8 FC 94 11 95 EE 94 1F 95 
19:33:22:5545 Rx 1 0x631 s 8 FC 94 11 95 EE 94 1F 95 
19:33:22:5547 Rx 1 0x632 s 8 22 95 10 95 0C 95 E1 94 
19:33:22:5549 Rx 1 0x632 s 8 22 95 10 95 0C 95 E1 94 
19:33:22:5551 Rx 1 0x632 s 8 22 95 10 95 0C 95 E1 94 
19:33:22:5554 Rx 1 0x632 s 8 22 95 10 95 0C 95 E1 94 
19:33:22:5556 Rx 1 0x633 s 8 68 94 C6 94 C3 94 C6 94 
19:33:22:5558 Rx 1 0x633 s 8 68 94 C6 94 C3 94 C6 94 
19:33:22:5560 Rx 1 0x633 s 8 68 94 C6 94 C3 94 C6 94 
19:33:22:5563 Rx 1 0x633 s 8 68 94 C6 94 C3 94 C6 94 
19:33:22:5565 Rx 1 0x634 s 8 C3 94 B0 94 B1 94 AD 94 
19:33:22:5567 Rx 1 0x634 s 8 C3 94 B0 94 B1 94 AD 94 
19:33:22:5569 Rx 1 0x634 s 8 C3 94 B0 94 B1 94 AD 94 
19:33:22:5572 Rx 1 0x634 s 8 C3 94 B0 94 B1 94 AD 94 
19:33:22:5574 Rx 1 0x635 s 8 BD 94 C0 94 BC 94 77 94 
19:33:22:5576 Rx 1 0x635 s 8 BD 94 C0 94 BC 94 77 94 
19:33:22:5578 Rx 1 0x635 s 8 BD 94 C0 94 BC 94 77 94 
19:33:22:5581 Rx 1 0x635 s 8 BD 94 C0 94 BC 94 77 94 
19:33:22:5583 Rx 1 0x636 s 8 19 95 36 95 48 95 46 95 
19:33:22:5585 Rx 1 0x636 s 8 19 95 36 95 48 95 46 95 
19:33:22:5587 Rx 1 0x636 s 8 19 95 36 95 48 95 46 95 
19:33:22:5590 Rx 1 0x636 s 8 19 95 36 95 48 95 46 95 
19:33:22:5592 Rx 1 0x637 s 8 3B 95 35 95 35 95 40 95 
19:33:22:5594 Rx 1 0x637 s 8 3B 95 35 95 35 95 40 95 
19:33:22:5597 Rx 1 0x637 s 8 3B 95 35 95 35 95 40 95 
19:33:22:5599 Rx 1 0x637 s 8 3B 95 35 95 35 95 40 95 
19:33:22:5601 Rx 1 0x638 s 8 4A 95 4C 95 4A 95 30 95 
19:33:22:5604 Rx 1 0x638 s 8 4A 95 4C 95 4A 95 30 95 
19:33:22:5606 Rx 1 0x638 s 8 4A 95 4C 95 4A 95 30 95 
19:33:22:5608 Rx 1 0x638 s 8 4A 95 4C 95 4A 95 30 95 
19:33:22:5610 Rx 1 0x639 s 8 5F 95 4D 95 46 95 31 95 
19:33:22:5612 Rx 1 0x639 s 8 5F 95 4D 95 46 95 31 95 
19:33:22:5615 Rx 1 0x639 s 8 5F 95 4D 95 46 95 31 95 
19:33:22:5617 Rx 1 0x639 s 8 5F 95 4D 95 46 95 31 95 
19:33:22:5619 Rx 1 0x63A s 8 32 95 30 95 2C 95 0C 95 
19:33:22:5621 Rx 1 0x63A s 8 32 95 30 95 2C 95 0C 95 
19:33:22:5624 Rx 1 0x63A s 8 32 95 30 95 2C 95 0C 95 
19:33:22:5626 Rx 1 0x63A s 8 32 95 30 95 2C 95 0C 95 
19:33:22:5628 Rx 1 0x63B s 8 42 95 42 95 18 95 06 95 
19:33:22:5630 Rx 1 0x63B s 8 42 95 42 95 18 95 06 95 
19:33:22:5633 Rx 1 0x63B s 8 42 95 42 95 18 95 06 95 
19:33:22:5635 Rx 1 0x63B s 8 42 95 42 95 18 95 06 95 
19:33:22:5637 Rx 1 0x63C s 8 F5 94 40 95 0D 95 14 95 
19:33:22:5639 Rx 1 0x63C s 8 F5 94 40 95 0D 95 14 95 
19:33:22:5642 Rx 1 0x63C s 8 F5 94 40 95 0D 95 14 95 
19:33:22:5644 Rx 1 0x63C s 8 F5 94 40 95 0D 95 14 95 
19:33:22:5646 Rx 1 0x63D s 8 CC 94 06 95 21 95 33 95 
19:33:22:5648 Rx 1 0x63D s 8 CC 94 06 95 21 95 33 95 
19:33:22:5651 Rx 1 0x63D s 8 CC 94 06 95 21 95 33 95 
19:33:22:5653 Rx 1 0x63D s 8 CC 94 06 95 21 95 33 95 
19:33:22:5655 Rx 1 0x63E s 8 2A 95 B3 91 0C 95 FB 94 
19:33:22:5658 Rx 1 0x63E s 8 2A 95 B3 91 0C 95 FB 94 
19:33:22:5660 Rx 1 0x63E s 8 2A 95 B3 91 0C 95 FB 94 
19:33:22:5662 Rx 1 0x63E s 8 2A 95 B3 91 0C 95 FB 94 
19:33:22:5665 Rx 1 0x63F s 8 20 95 5A 95 2F 95 60 95 
19:33:22:5667 Rx 1 0x63F s 8 20 95 5A 95 2F 95 60 95 
19:33:22:5669 Rx 1 0x63F s 8 20 95 5A 95 2F 95 60 95 
19:33:22:5671 Rx 1 0x63F s 8 20 95 5A 95 2F 95 60 95 
19:33:22:5674 Rx 1 0x640 s 8 58 95 46 95 49 95 3A 95 
19:33:22:5676 Rx 1 0x640 s 8 58 95 46 95 49 95 3A 95 
19:33:22:5678 Rx 1 0x640 s 8 58 95 46 95 49 95 3A 95 
19:33:22:5681 Rx 1 0x640 s 8 58 95 46 95 49 95 3A 95 
19:33:22:5683 Rx 1 0x641 s 8 1B 95 5D 95 54 95 27 95 
19:33:22:5685 Rx 1 0x641 s 8 1B 95 5D 95 54 95 27 95 
19:33:22:5687 Rx 1 0x641 s 8 1B 95 5D 95 54 95 27 95 
19:33:22:5690 Rx 1 0x641 s 8 1B 95 5D 95 54 95 27 95 
19:33:22:5692 Rx 1 0x642 s 8 73 96 6D 96 7E 95 AA 95 
19:33:22:5694 Rx 1 0x642 s 8 73 96 6D 96 7E 95 AA 95 
19:33:22:5697 Rx 1 0x642 s 8 73 96 6D 96 7E 95 AA 95 
19:33:22:5699 Rx 1 0x642 s 8 73 96 6D 96 7E 95 AA 95 
19:33:22:5701 Rx 1 0x643 s 8 B5 97 D4 97 D2 97 B2 96 
19:33:22:5703 Rx 1 0x643 s 8 B5 97 D4 97 D2 97 B2 96 
19:33:22:5705 Rx 1 0x643 s 8 B5 97 D4 97 D2 97 B2 96 
19:33:22:5708 Rx 1 0x643 s 8 B5 97 D4 97 D2 97 B2 96 
19:33:22:5710 Rx 1 0x644 s 8 76 97 70 97 10 97 33 97 
19:33:22:5712 Rx 1 0x644 s 8 76 97 70 97 10 97 33 97 
19:33:22:5714 Rx 1 0x644 s 8 76 97 70 97 10 97 33 97 
19:33:22:5717 Rx 1 0x644 s 8 76 97 70 97 10 97 33 97 
19:33:22:5719 Rx 1 0x645 s 8 4A 95 36 95 07 95 5B 95 
19:33:22:5721 Rx 1 0x645 s 8 4A 95 36 95 07 95 5B 95 
19:33:22:5724 Rx 1 0x645 s 8 4A 95 36 95 07 95 5B 95 
19:33:22:5726 Rx 1 0x645 s 8 4A 95 36 95 07 95 5B 95 
19:33:22:5728 Rx 1 0x646 s 8 DE 94 5D 95 4B 95 69 95 
19:33:22:5730 Rx 1 0x646 s 8 DE 94 5D 95 4B 95 69 95 
19:33:22:5732 Rx 1 0x646 s 8 DE 94 5D 95 4B 95 69 95 
19:33:22:5735 Rx 1 0x646 s 8 DE 94 5D 95 4B 95 69 95 
19:33:22:5737 Rx 1 0x647 s 8 72 95 6F 95 6E 95 3A 95 
19:33:22:5739 Rx 1 0x647 s 8 72 95 6F 95 6E 95 3A 95 
19:33:22:5742 Rx 1 0x647 s 8 72 95 6F 95 6E 95 3A 95 
19:33:22:5744 Rx 1 0x647 s 8 72 95 6F 95 6E 95 3A 95 
19:33:22:5746 Rx 1 0x680 s 8 13 00 13 00 13 00 13 00 
19:33:22:5749 Rx 1 0x680 s 8 13 00 13 00 13 00 13 00 
19:33:22:5751 Rx 1 0x680 s 8 13 00 13 00 13 00 13 00 
19:33:22:5754 Rx 1 0x680 s 8 13 00 13 00 13 00 13 00 
19:33:22:5756 Rx 1 0x681 s 8 13 00 13 00 13 00 13 00 
19:33:22:5758 Rx 1 0x681 s 8 13 00 13 00 13 00 13 00 
19:33:22:5761 Rx 1 0x681 s 8 13 00 13 00 13 00 13 00 
19:33:22:5763 Rx 1 0x681 s 8 13 00 13 00 13 00 13 00 
19:33:22:5766 Rx 1 0x682 s 8 13 00 13 00 13 00 13 00 
19:33:22:5768 Rx 1 0x682 s 8 13 00 13 00 13 00 13 00 
19:33:22:5770 Rx 1 0x682 s 8 13 00 13 00 13 00 13 00 
19:33:22:5773 Rx 1 0x682 s 8 13 00 13 00 13 00 13 00 
19:33:22:5775 Rx 1 0x683 s 8 13 00 13 00 13 00 13 00 
19:33:22:5778 Rx 1 0x683 s 8 13 00 13 00 13 00 13 00 
19:33:22:5780 Rx 1 0x683 s 8 13 00 13 00 13 00 13 00 
19:33:22:5782 Rx 1 0x683 s 8 13 00 13 00 13 00 13 00 
19:33:22:5785 Rx 1 0x684 s 8 13 00 13 00 13 00 13 00 
19:33:22:5787 Rx 1 0x684 s 8 13 00 13 00 13 00 13 00 
19:33:22:5790 Rx 1 0x684 s 8 13 00 13 00 13 00 13 00 
19:33:22:5792 Rx 1 0x684 s 8 13 00 13 00 13 00 13 00 
19:33:22:5795 Rx 1 0x685 s 8 13 00 13 00 13 00 13 00 
19:33:22:5797 Rx 1 0x685 s 8 13 00 13 00 13 00 13 00 
19:33:22:5799 Rx 1 0x685 s 8 13 00 13 00 13 00 13 00 
19:33:22:5802 Rx 1 0x685 s 8 13 00 13 00 13 00 13 00 
19:33:22:5804 Rx 1 0x686 s 8 13 00 13 00 13 00 13 00 
19:33:22:5807 Rx 1 0x686 s 8 13 00 13 00 13 00 13 00 
19:33:22:5809 Rx 1 0x686 s 8 13 00 13 00 13 00 13 00 
19:33:22:5811 Rx 1 0x686 s 8 13 00 13 00 13 00 13 00 
19:33:22:5814 Rx 1 0x687 s 8 13 00 13 00 13 00 13 00 
19:33:22:5816 Rx 1 0x687 s 8 13 00 13 00 13 00 13 00 
19:33:22:5819 Rx 1 0x687 s 8 13 00 13 00 13 00 13 00 
19:33:22:5821 Rx 1 0x687 s 8 13 00 13 00 13 00 13 00 
19:33:22:5823 Rx 1 0x688 s 8 13 00 13 00 13 00 13 00 
19:33:22:5826 Rx 1 0x688 s 8 13 00 13 00 13 00 13 00 
19:33:22:5828 Rx 1 0x688 s 8 13 00 13 00 13 00 13 00 
19:33:22:5831 Rx 1 0x688 s 8 13 00 13 00 13 00 13 00 
19:33:22:5833 Rx 1 0x689 s 8 13 00 13 00 13 00 13 00 
19:33:22:5835 Rx 1 0x689 s 8 13 00 13 00 13 00 13 00 
19:33:22:5838 Rx 1 0x689 s 8 13 00 13 00 13 00 13 00 
19:33:22:5840 Rx 1 0x689 s 8 13 00 13 00 13 00 13 00 
19:33:22:5842 Rx 1 0x68A s 8 13 00 13 00 13 00 13 00 
19:33:22:5845 Rx 1 0x68A s 8 13 00 13 00 13 00 13 00 
19:33:22:5847 Rx 1 0x68A s 8 13 00 13 00 13 00 13 00 
19:33:22:5850 Rx 1 0x68A s 8 13 00 13 00 13 00 13 00 
19:33:22:5852 Rx 1 0x68B s 8 13 00 13 00 13 00 13 00 
19:33:22:5854 Rx 1 0x68B s 8 13 00 13 00 13 00 13 00 
19:33:22:5857 Rx 1 0x68B s 8 13 00 13 00 13 00 13 00 
19:33:22:5859 Rx 1 0x68B s 8 13 00 13 00 13 00 13 00 
19:33:22:5862 Rx 1 0x68C s 8 13 00 13 00 13 00 13 00 
19:33:22:5864 Rx 1 0x68C s 8 13 00 13 00 13 00 13 00 
19:33:22:5866 Rx 1 0x68C s 8 13 00 13 00 13 00 13 00 
19:33:22:5869 Rx 1 0x68C s 8 13 00 13 00 13 00 13 00 
19:33:22:5871 Rx 1 0x68D s 8 13 00 13 00 13 00 13 00 
19:33:22:5874 Rx 1 0x68D s 8 13 00 13 00 13 00 13 00 
19:33:22:5876 Rx 1 0x68D s 8 13 00 13 00 13 00 13 00 
19:33:22:5879 Rx 1 0x68D s 8 13 00 13 00 13 00 13 00 
19:33:22:5881 Rx 1 0x68E s 8 12 00 13 00 13 00 13 00 
19:33:22:5883 Rx 1 0x68E s 8 12 00 13 00 13 00 13 00 
19:33:22:5886 Rx 1 0x68E s 8 12 00 13 00 13 00 13 00 
19:33:22:5888 Rx 1 0x68E s 8 12 00 13 00 13 00 13 00 
19:33:22:5891 Rx 1 0x68F s 8 13 00 13 00 13 00 13 00 
19:33:22:5893 Rx 1 0x68F s 8 13 00 13 00 13 00 13 00 
19:33:22:5895 Rx 1 0x68F s 8 13 00 13 00 13 00 13 00 
19:33:22:5898 Rx 1 0x68F s 8 13 00 13 00 13 00 13 00 
19:33:22:5900 Rx 1 0x690 s 8 13 00 13 00 13 00 13 00 
19:33:22:5903 Rx 1 0x690 s 8 13 00 13 00 13 00 13 00 
19:33:22:5905 Rx 1 0x690 s 8 13 00 13 00 13 00 13 00 
19:33:22:5907 Rx 1 0x690 s 8 13 00 13 00 13 00 13 00 
19:33:22:5910 Rx 1 0x691 s 8 13 00 12 00 13 00 13 00 
19:33:22:5912 Rx 1 0x691 s 8 13 00 12 00 13 00 13 00 
19:33:22:5915 Rx 1 0x691 s 8 13 00 12 00 13 00 13 00 
19:33:22:5917 Rx 1 0x691 s 8 13 00 12 00 13 00 13 00 
19:33:22:5919 Rx 1 0x692 s 8 13 00 13 00 13 00 13 00 
19:33:22:5922 Rx 1 0x692 s 8 13 00 13 00 13 00 13 00 
19:33:22:5924 Rx 1 0x692 s 8 13 00 13 00 13 00 13 00 
19:33:22:5927 Rx 1 0x692 s 8 13 00 13 00 13 00 13 00 
19:33:22:5929 Rx 1 0x693 s 8 13 00 13 00 13 00 13 00 
19:33:22:5931 Rx 1 0x693 s 8 13 00 13 00 13 00 13 00 
19:33:22:5933 Rx 1 0x693 s 8 13 00 13 00 13 00 13 00 
19:33:22:5936 Rx 1 0x693 s 8 13 00 13 00 13 00 13 00 
19:33:22:5938 Rx 1 0x694 s 8 13 00 13 00 13 00 13 00 
19:33:22:5941 Rx 1 0x694 s 8 13 00 13 00 13 00 13 00 
19:33:22:5943 Rx 1 0x694 s 8 13 00 13 00 13 00 13 00 
19:33:22:5946 Rx 1 0x694 s 8 13 00 13 00 13 00 13 00 
19:33:22:5948 Rx 1 0x695 s 8 13 00 13 00 13 00 13 00 
19:33:22:5950 Rx 1 0x695 s 8 13 00 13 00 13 00 13 00 
19:33:22:5953 Rx 1 0x695 s 8 13 00 13 00 13 00 13 00 
19:33:22:5955 Rx 1 0x695 s 8 13 00 13 00 13 00 13 00 
19:33:22:5958 Rx 1 0x696 s 8 13 00 13 00 13 00 13 00 
19:33:22:5960 Rx 1 0x696 s 8 13 00 13 00 13 00 13 00 
19:33:22:5962 Rx 1 0x696 s 8 13 00 13 00 13 00 13 00 
19:33:22:5964 Rx 1 0x696 s 8 13 00 13 00 13 00 13 00 
19:33:22:5967 Rx 1 0x697 s 8 13 00 13 00 13 00 13 00 
19:33:22:5970 Rx 1 0x697 s 8 13 00 13 00 13 00 13 00 
19:33:22:5972 Rx 1 0x697 s 8 13 00 13 00 13 00 13 00 
19:33:22:5974 Rx 1 0x601 s 8 0E 5D 63 99 91 00 00 00 
19:33:22:5976 Rx 1 0x697 s 8 13 00 13 00 13 00 13 00 
19:33:22:6294 Rx 1 0x600 s 8 00 00 00 A6 00 00 00 00 
19:33:22:6296 Rx 1 0x622 s 8 DA 97 B4 91 13 00 13 00 
19:33:22:6299 Rx 1 0x630 s 8 CA 94 29 95 F2 94 20 95 
19:33:22:6301 Rx 1 0x630 s 8 CA 94 29 95 F2 94 20 95 
19:33:22:6303 Rx 1 0x630 s 8 CA 94 29 95 F2 94 20 95 
19:33:22:6305 Rx 1 0x630 s 8 CA 94 29 95 F2 94 20 95 
19:33:22:6308 Rx 1 0x631 s 8 FA 94 14 95 EE 94 20 95 
19:33:22:6310 Rx 1 0x631 s 8 FA 94 14 95 EE 94 20 95 
19:33:22:6312 Rx 1 0x631 s 8 FA 94 14 95 EE 94 20 95 
19:33:22:6314 Rx 1 0x631 s 8 FA 94 14 95 EE 94 20 95 
19:33:22:6316 Rx 1 0x632 s 8 23 95 0D 95 0D 95 DB 94 
19:33:22:6319 Rx 1 0x632 s 8 23 95 0D 95 0D 95 DB 94 
19:33:22:6321 Rx 1 0x632 s 8 23 95 0D 95 0D 95 DB 94 
19:33:22:6323 Rx 1 0x632 s 8 23 95 0D 95 0D 95 DB 94 
19:33:22:6325 Rx 1 0x633 s 8 66 94 C6 94 C3 94 C6 94 
19:33:22:6328 Rx 1 0x633 s 8 66 94 C6 94 C3 94 C6 94 
19:33:22:6330 Rx 1 0x633 s 8 66 94 C6 94 C3 94 C6 94 
19:33:22:6332 Rx 1 0x633 s 8 66 94 C6 94 C3 94 C6 94 
19:33:22:6334 Rx 1 0x634 s 8 C3 94 B0 94 B2 94 AC 94 
19:33:22:6337 Rx 1 0x634 s 8 C3 94 B0 94 B2 94 AC 94 
19:33:22:6339 Rx 1 0x634 s 8 C3 94 B0 94 B2 94 AC 94 
19:33:22:6341 Rx 1 0x634 s 8 C3 94 B0 94 B2 94 AC 94 
19:33:22:6343 Rx 1 0x635 s 8 BC 94 BF 94 B9 94 77 94 
19:33:22:6346 Rx 1 0x635 s 8 BC 94 BF 94 B9 94 77 94 
19:33:22:6348 Rx 1 0x635 s 8 BC 94 BF 94 B9 94 77 94 
19:33:22:6350 Rx 1 0x635 s 8 BC 94 BF 94 B9 94 77 94 
19:33:22:6353 Rx 1 0x636 s 8 19 95 35 95 49 95 4B 95 
19:33:22:6355 Rx 1 0x636 s 8 19 95 35 95 49 95 4B 95 
19:33:22:6357 Rx 1 0x636 s 8 19 95 35 95 49 95 4B 95 
19:33:22:6359 Rx 1 0x636 s 8 19 95 35 95 49 95 4B 95 
19:33:22:6362 Rx 1 0x637 s 8 3C 95 35 95 35 95 40 95 
19:33:22:6364 Rx 1 0x637 s 8 3C 95 35 95 35 95 40 95 
19:33:22:6366 Rx 1 0x637 s 8 3C 95 35 95 35 95 40 95 
19:33:22:6369 Rx 1 0x637 s 8 3C 95 35 95 35 95 40 95 
19:33:22:6371 Rx 1 0x638 s 8 48 95 4F 95 47 95 2D 95 
19:33:22:6373 Rx 1 0x638 s 8 48 95 4F 95 47 95 2D 95 
19:33:22:6375 Rx 1 0x638 s 8 48 95 4F 95 47 95 2D 95 
19:33:22:6377 Rx 1 0x638 s 8 48 95 4F 95 47 95 2D 95 
19:33:22:6380 Rx 1 0x639 s 8 60 95 4C 95 46 95 35 95 
19:33:22:6382 Rx 1 0x639 s 8 60 95 4C 95 46 95 35 95 
19:33:22:6384 Rx 1 0x639 s 8 60 95 4C 95 46 95 35 95 
19:33:22:6386 Rx 1 0x639 s 8 60 95 4C 95 46 95 35 95 
19:33:22:6389 Rx 1 0x63A s 8 33 95 31 95 2D 95 0B 95 
19:33:22:6391 Rx 1 0x63A s 8 33 95 31 95 2D 95 0B 95 
19:33:22:6393 Rx 1 0x63A s 8 33 95 31 95 2D 95 0B 95 
19:33:22:6395 Rx 1 0x63A s 8 33 95 31 95 2D 95 0B 95 
19:33:22:6398 Rx 1 0x63B s 8 45 95 47 95 1D 95 00 95 
19:33:22:6400 Rx 1 0x63B s 8 45 95 47 95 1D 95 00 95 
19:33:22:6402 Rx 1 0x63B s 8 45 95 47 95 1D 95 00 95 
19:33:22:6404 Rx 1 0x63B s 8 45 95 47 95 1D 95 00 95 
19:33:22:6407 Rx 1 0x63C s 8 F5 94 41 95 0D 95 16 95 
19:33:22:6409 Rx 1 0x63C s 8 F5 94 41 95 0D 95 16 95 
19:33:22:6411 Rx 1 0x63C s 8 F5 94 41 95 0D 95 16 95 
19:33:22:6414 Rx 1 0x63C s 8 F5 94 41 95 0D 95 16 95 
19:33:22:6416 Rx 1 0x63D s 8 CB 94 06 95 21 95 34 95 
19:33:22:6418 Rx 1 0x63D s 8 CB 94 06 95 21 95 34 95 
19:33:22:6420 Rx 1 0x63D s 8 CB 94 06 95 21 95 34 95 
19:33:22:6423 Rx 1 0x63D s 8 CB 94 06 95 21 95 34 95 
19:33:22:6425 Rx 1 0x63E s 8 2B 95 B4 91 0E 95 FD 94 
19:33:22:6427 Rx 1 0x63E s 8 2B 95 B4 91 0E 95 FD 94 
19:33:22:6430 Rx 1 0x63E s 8 2B 95 B4 91 0E 95 FD 94 
19:33:22:6432 Rx 1 0x63E s 8 2B 95 B4 91 0E 95 FD 94 
19:33:22:6434 Rx 1 0x63F s 8 20 95 59 95 2C 95 60 95 
19:33:22:6436 Rx 1 0x63F s 8 20 95 59 95 2C 95 60 95 
19:33:22:6438 Rx 1 0x63F s 8 20 95 59 95 2C 95 60 95 
19:33:22:6441 Rx 1 0x63F s 8 20 95 59 95 2C 95 60 95 
19:33:22:6443 Rx 1 0x640 s 8 59 95 45 95 48 95 36 95 
19:33:22:6445 Rx 1 0x640 s 8 59 95 45 95 48 95 36 95 
19:33:22:6448 Rx 1 0x640 s 8 59 95 45 95 48 95 36 95 
19:33:22:6450 Rx 1 0x640 s 8 59 95 45 95 48 95 36 95 
19:33:22:6452 Rx 1 0x641 s 8 18 95 5A 95 55 95 23 95 
19:33:22:6455 Rx 1 0x641 s 8 18 95 5A 95 55 95 23 95 
19:33:22:6457 Rx 1 0x641 s 8 18 95 5A 95 55 95 23 95 
19:33:22:6459 Rx 1 0x641 s 8 18 95 5A 95 55 95 23 95 
19:33:22:6462 Rx 1 0x642 s 8 73 96 6E 96 7C 95 AC 95 
19:33:22:6464 Rx 1 0x642 s 8 73 96 6E 96 7C 95 AC 95 
19:33:22:6466 Rx 1 0x642 s 8 73 96 6E 96 7C 95 AC 95 
19:33:22:6468 Rx 1 0x642 s 8 73 96 6E 96 7C 95 AC 95 
19:33:22:6470 Rx 1 0x643 s 8 B9 97 DA 97 D2 97 B6 96 
19:33:22:6473 Rx 1 0x643 s 8 B9 97 DA 97 D2 97 B6 96 
19:33:22:6475 Rx 1 0x643 s 8 B9 97 DA 97 D2 97 B6 96 
19:33:22:6477 Rx 1 0x643 s 8 B9 97 DA 97 D2 97 B6 96 
19:33:22:6479 Rx 1 0x644 s 8 73 97 73 97 17 97 35 97 
19:33:22:6482 Rx 1 0x644 s 8 73 97 73 97 17 97 35 97 
19:33:22:6484 Rx 1 0x644 s 8 73 97 73 97 17 97 35 97 
19:33:22:6486 Rx 1 0x644 s 8 73 97 73 97 17 97 35 97 
19:33:22:6488 Rx 1 0x645 s 8 49 95 36 95 06 95 5C 95 
